#   Hz   S  RI   R   50
!
0.000000e+00 9.700210e-04 0.000000e+00 9.990331e-01 0.000000e+00 9.990356e-01 0.000000e+00 9.767484e-04 0.000000e+00
1.000000e+08 9.700244e-04 3.761162e-06 9.990330e-01 -1.144146e-04 9.990356e-01 -1.144155e-04 9.767554e-04 4.377881e-06
2.000000e+08 9.700345e-04 7.522239e-06 9.990330e-01 -2.288291e-04 9.990355e-01 -2.288309e-04 9.767763e-04 8.755675e-06
3.000000e+08 9.700513e-04 1.128315e-05 9.990329e-01 -3.432433e-04 9.990355e-01 -3.432460e-04 9.768112e-04 1.313330e-05
4.000000e+08 9.700749e-04 1.504380e-05 9.990329e-01 -4.576571e-04 9.990354e-01 -4.576607e-04 9.768601e-04 1.751065e-05
5.000000e+08 9.701052e-04 1.880412e-05 9.990327e-01 -5.720703e-04 9.990353e-01 -5.720748e-04 9.769229e-04 2.188767e-05
6.000000e+08 9.701423e-04 2.256402e-05 9.990326e-01 -6.864828e-04 9.990351e-01 -6.864883e-04 9.769997e-04 2.626424e-05
7.000000e+08 9.701861e-04 2.632341e-05 9.990324e-01 -8.008944e-04 9.990350e-01 -8.009008e-04 9.770904e-04 3.064030e-05
8.000000e+08 9.702366e-04 3.008221e-05 9.990322e-01 -9.153051e-04 9.990348e-01 -9.153124e-04 9.771951e-04 3.501574e-05
9.000000e+08 9.702938e-04 3.384034e-05 9.990320e-01 -1.029715e-03 9.990346e-01 -1.029723e-03 9.773137e-04 3.939049e-05
1.000000e+09 9.703577e-04 3.759771e-05 9.990318e-01 -1.144123e-03 9.990343e-01 -1.144132e-03 9.774462e-04 4.376446e-05
1.100000e+09 9.704283e-04 4.135424e-05 9.990315e-01 -1.258530e-03 9.990340e-01 -1.258540e-03 9.775926e-04 4.813756e-05
1.200000e+09 9.705056e-04 4.510985e-05 9.990312e-01 -1.372935e-03 9.990338e-01 -1.372946e-03 9.777530e-04 5.250970e-05
1.300000e+09 9.705896e-04 4.886444e-05 9.990309e-01 -1.487339e-03 9.990334e-01 -1.487350e-03 9.779273e-04 5.688081e-05
1.400000e+09 9.706803e-04 5.261795e-05 9.990306e-01 -1.601740e-03 9.990331e-01 -1.601753e-03 9.781154e-04 6.125078e-05
1.500000e+09 9.707776e-04 5.637027e-05 9.990302e-01 -1.716140e-03 9.990327e-01 -1.716154e-03 9.783174e-04 6.561954e-05
1.600000e+09 9.708816e-04 6.012134e-05 9.990298e-01 -1.830538e-03 9.990323e-01 -1.830552e-03 9.785333e-04 6.998700e-05
1.700000e+09 9.709922e-04 6.387107e-05 9.990294e-01 -1.944933e-03 9.990319e-01 -1.944949e-03 9.787631e-04 7.435308e-05
1.800000e+09 9.711095e-04 6.761937e-05 9.990289e-01 -2.059326e-03 9.990315e-01 -2.059343e-03 9.790067e-04 7.871768e-05
1.900000e+09 9.712333e-04 7.136616e-05 9.990285e-01 -2.173717e-03 9.990310e-01 -2.173734e-03 9.792641e-04 8.308073e-05
2.000000e+09 9.713638e-04 7.511136e-05 9.990280e-01 -2.288104e-03 9.990305e-01 -2.288123e-03 9.795353e-04 8.744213e-05
2.100000e+09 9.715008e-04 7.885489e-05 9.990274e-01 -2.402489e-03 9.990300e-01 -2.402509e-03 9.798204e-04 9.180181e-05
2.200000e+09 9.716444e-04 8.259666e-05 9.990269e-01 -2.516871e-03 9.990294e-01 -2.516892e-03 9.801192e-04 9.615967e-05
2.300000e+09 9.717946e-04 8.633659e-05 9.990263e-01 -2.631250e-03 9.990289e-01 -2.631272e-03 9.804317e-04 1.005156e-04
2.400000e+09 9.719512e-04 9.007460e-05 9.990257e-01 -2.745626e-03 9.990283e-01 -2.745649e-03 9.807580e-04 1.048696e-04
2.500000e+09 9.721144e-04 9.381061e-05 9.990251e-01 -2.859998e-03 9.990276e-01 -2.860022e-03 9.810980e-04 1.092215e-04
2.600000e+09 9.722841e-04 9.754454e-05 9.990244e-01 -2.974367e-03 9.990270e-01 -2.974392e-03 9.814518e-04 1.135713e-04
2.700000e+09 9.724603e-04 1.012763e-04 9.990238e-01 -3.088733e-03 9.990263e-01 -3.088758e-03 9.818192e-04 1.179188e-04
2.800000e+09 9.726429e-04 1.050058e-04 9.990231e-01 -3.203094e-03 9.990256e-01 -3.203120e-03 9.822002e-04 1.222641e-04
2.900000e+09 9.728319e-04 1.087330e-04 9.990224e-01 -3.317452e-03 9.990249e-01 -3.317479e-03 9.825949e-04 1.266069e-04
3.000000e+09 9.730273e-04 1.124578e-04 9.990216e-01 -3.431805e-03 9.990241e-01 -3.431834e-03 9.830032e-04 1.309472e-04
3.100000e+09 9.732291e-04 1.161801e-04 9.990208e-01 -3.546154e-03 9.990234e-01 -3.546184e-03 9.834251e-04 1.352850e-04
3.200000e+09 9.734373e-04 1.198998e-04 9.990200e-01 -3.660499e-03 9.990226e-01 -3.660530e-03 9.838605e-04 1.396201e-04
3.300000e+09 9.736518e-04 1.236169e-04 9.990192e-01 -3.774840e-03 9.990218e-01 -3.774872e-03 9.843095e-04 1.439524e-04
3.400000e+09 9.738727e-04 1.273313e-04 9.990184e-01 -3.889176e-03 9.990209e-01 -3.889209e-03 9.847720e-04 1.482820e-04
3.500000e+09 9.740998e-04 1.310428e-04 9.990175e-01 -4.003507e-03 9.990200e-01 -4.003541e-03 9.852479e-04 1.526087e-04
3.600000e+09 9.743331e-04 1.347515e-04 9.990166e-01 -4.117834e-03 9.990191e-01 -4.117869e-03 9.857373e-04 1.569324e-04
3.700000e+09 9.745727e-04 1.384572e-04 9.990157e-01 -4.232155e-03 9.990182e-01 -4.232191e-03 9.862402e-04 1.612530e-04
3.800000e+09 9.748185e-04 1.421599e-04 9.990147e-01 -4.346472e-03 9.990173e-01 -4.346509e-03 9.867564e-04 1.655705e-04
3.900000e+09 9.750705e-04 1.458595e-04 9.990138e-01 -4.460783e-03 9.990163e-01 -4.460821e-03 9.872860e-04 1.698848e-04
4.000000e+09 9.753286e-04 1.495558e-04 9.990128e-01 -4.575089e-03 9.990153e-01 -4.575128e-03 9.878289e-04 1.741957e-04
4.100000e+09 9.755928e-04 1.532489e-04 9.990117e-01 -4.689389e-03 9.990143e-01 -4.689429e-03 9.883851e-04 1.785033e-04
4.200000e+09 9.758631e-04 1.569386e-04 9.990107e-01 -4.803684e-03 9.990132e-01 -4.803725e-03 9.889546e-04 1.828074e-04
4.300000e+09 9.761394e-04 1.606249e-04 9.990096e-01 -4.917973e-03 9.990122e-01 -4.918016e-03 9.895373e-04 1.871080e-04
4.400000e+09 9.764218e-04 1.643078e-04 9.990085e-01 -5.032256e-03 9.990111e-01 -5.032300e-03 9.901332e-04 1.914050e-04
4.500000e+09 9.767101e-04 1.679870e-04 9.990074e-01 -5.146533e-03 9.990100e-01 -5.146578e-03 9.907422e-04 1.956983e-04
4.600000e+09 9.770044e-04 1.716626e-04 9.990063e-01 -5.260804e-03 9.990088e-01 -5.260850e-03 9.913644e-04 1.999878e-04
4.700000e+09 9.773046e-04 1.753344e-04 9.990051e-01 -5.375069e-03 9.990076e-01 -5.375116e-03 9.919997e-04 2.042735e-04
4.800000e+09 9.776107e-04 1.790025e-04 9.990039e-01 -5.489328e-03 9.990065e-01 -5.489376e-03 9.926480e-04 2.085552e-04
4.900000e+09 9.779226e-04 1.826667e-04 9.990027e-01 -5.603580e-03 9.990052e-01 -5.603629e-03 9.933093e-04 2.128330e-04
5.000000e+09 9.782403e-04 1.863269e-04 9.990015e-01 -5.717825e-03 9.990040e-01 -5.717876e-03 9.939836e-04 2.171066e-04
5.100000e+09 9.785638e-04 1.899831e-04 9.990002e-01 -5.832064e-03 9.990027e-01 -5.832116e-03 9.946709e-04 2.213761e-04
5.200000e+09 9.788930e-04 1.936352e-04 9.989989e-01 -5.946295e-03 9.990015e-01 -5.946349e-03 9.953710e-04 2.256414e-04
5.300000e+09 9.792279e-04 1.972832e-04 9.989976e-01 -6.060520e-03 9.990001e-01 -6.060575e-03 9.960840e-04 2.299024e-04
5.400000e+09 9.795685e-04 2.009269e-04 9.989963e-01 -6.174738e-03 9.989988e-01 -6.174794e-03 9.968098e-04 2.341589e-04
5.500000e+09 9.799147e-04 2.045663e-04 9.989949e-01 -6.288949e-03 9.989974e-01 -6.289005e-03 9.975483e-04 2.384111e-04
5.600000e+09 9.802664e-04 2.082013e-04 9.989935e-01 -6.403152e-03 9.989961e-01 -6.403210e-03 9.982996e-04 2.426587e-04
5.700000e+09 9.806237e-04 2.118319e-04 9.989921e-01 -6.517348e-03 9.989947e-01 -6.517407e-03 9.990636e-04 2.469017e-04
5.800000e+09 9.809865e-04 2.154579e-04 9.989907e-01 -6.631536e-03 9.989932e-01 -6.631597e-03 9.998402e-04 2.511400e-04
5.900000e+09 9.813547e-04 2.190794e-04 9.989892e-01 -6.745717e-03 9.989918e-01 -6.745778e-03 1.000629e-03 2.553736e-04
6.000000e+09 9.817283e-04 2.226962e-04 9.989877e-01 -6.859889e-03 9.989903e-01 -6.859953e-03 1.001431e-03 2.596024e-04
6.100000e+09 9.821072e-04 2.263083e-04 9.989862e-01 -6.974054e-03 9.989888e-01 -6.974119e-03 1.002245e-03 2.638263e-04
6.200000e+09 9.824915e-04 2.299156e-04 9.989847e-01 -7.088211e-03 9.989873e-01 -7.088277e-03 1.003072e-03 2.680453e-04
6.300000e+09 9.828811e-04 2.335180e-04 9.989832e-01 -7.202360e-03 9.989857e-01 -7.202427e-03 1.003911e-03 2.722592e-04
6.400000e+09 9.832758e-04 2.371155e-04 9.989816e-01 -7.316501e-03 9.989842e-01 -7.316569e-03 1.004763e-03 2.764680e-04
6.500000e+09 9.836758e-04 2.407080e-04 9.989800e-01 -7.430633e-03 9.989826e-01 -7.430703e-03 1.005626e-03 2.806717e-04
6.600000e+09 9.840809e-04 2.442954e-04 9.989784e-01 -7.544757e-03 9.989810e-01 -7.544828e-03 1.006502e-03 2.848701e-04
6.700000e+09 9.844910e-04 2.478777e-04 9.989768e-01 -7.658872e-03 9.989793e-01 -7.658945e-03 1.007391e-03 2.890632e-04
6.800000e+09 9.849062e-04 2.514548e-04 9.989751e-01 -7.772979e-03 9.989777e-01 -7.773053e-03 1.008291e-03 2.932510e-04
6.900000e+09 9.853264e-04 2.550267e-04 9.989734e-01 -7.887077e-03 9.989760e-01 -7.887153e-03 1.009204e-03 2.974333e-04
7.000000e+09 9.857515e-04 2.585932e-04 9.989717e-01 -8.001166e-03 9.989743e-01 -8.001243e-03 1.010128e-03 3.016102e-04
7.100000e+09 9.861815e-04 2.621544e-04 9.989700e-01 -8.115246e-03 9.989725e-01 -8.115325e-03 1.011065e-03 3.057815e-04
7.200000e+09 9.866164e-04 2.657101e-04 9.989682e-01 -8.229317e-03 9.989708e-01 -8.229397e-03 1.012013e-03 3.099471e-04
7.300000e+09 9.870560e-04 2.692603e-04 9.989664e-01 -8.343379e-03 9.989690e-01 -8.343461e-03 1.012974e-03 3.141071e-04
7.400000e+09 9.875004e-04 2.728050e-04 9.989646e-01 -8.457432e-03 9.989672e-01 -8.457515e-03 1.013946e-03 3.182613e-04
7.500000e+09 9.879494e-04 2.763440e-04 9.989628e-01 -8.571475e-03 9.989654e-01 -8.571560e-03 1.014930e-03 3.224096e-04
7.600000e+09 9.884031e-04 2.798773e-04 9.989610e-01 -8.685509e-03 9.989635e-01 -8.685595e-03 1.015926e-03 3.265521e-04
7.700000e+09 9.888614e-04 2.834049e-04 9.989591e-01 -8.799533e-03 9.989617e-01 -8.799621e-03 1.016933e-03 3.306887e-04
7.800000e+09 9.893242e-04 2.869267e-04 9.989572e-01 -8.913548e-03 9.989598e-01 -8.913637e-03 1.017952e-03 3.348192e-04
7.900000e+09 9.897914e-04 2.904426e-04 9.989553e-01 -9.027553e-03 9.989579e-01 -9.027644e-03 1.018983e-03 3.389437e-04
8.000000e+09 9.902631e-04 2.939526e-04 9.989534e-01 -9.141548e-03 9.989560e-01 -9.141641e-03 1.020025e-03 3.430621e-04
8.100000e+09 9.907392e-04 2.974566e-04 9.989514e-01 -9.255533e-03 9.989540e-01 -9.255628e-03 1.021079e-03 3.471742e-04
8.200000e+09 9.912195e-04 3.009546e-04 9.989495e-01 -9.369508e-03 9.989520e-01 -9.369604e-03 1.022144e-03 3.512802e-04
8.300000e+09 9.917041e-04 3.044465e-04 9.989475e-01 -9.483474e-03 9.989500e-01 -9.483571e-03 1.023220e-03 3.553798e-04
8.400000e+09 9.921929e-04 3.079323e-04 9.989455e-01 -9.597428e-03 9.989480e-01 -9.597528e-03 1.024307e-03 3.594731e-04
8.500000e+09 9.926859e-04 3.114118e-04 9.989434e-01 -9.711373e-03 9.989460e-01 -9.711474e-03 1.025406e-03 3.635599e-04
8.600000e+09 9.931829e-04 3.148851e-04 9.989414e-01 -9.825308e-03 9.989439e-01 -9.825410e-03 1.026516e-03 3.676403e-04
8.700000e+09 9.936840e-04 3.183521e-04 9.989393e-01 -9.939231e-03 9.989418e-01 -9.939336e-03 1.027637e-03 3.717142e-04
8.800000e+09 9.941890e-04 3.218127e-04 9.989372e-01 -1.005314e-02 9.989397e-01 -1.005325e-02 1.028769e-03 3.757815e-04
8.900000e+09 9.946980e-04 3.252669e-04 9.989350e-01 -1.016705e-02 9.989376e-01 -1.016716e-02 1.029912e-03 3.798421e-04
9.000000e+09 9.952108e-04 3.287147e-04 9.989329e-01 -1.028094e-02 9.989355e-01 -1.028105e-02 1.031066e-03 3.838961e-04
9.100000e+09 9.957274e-04 3.321559e-04 9.989307e-01 -1.039482e-02 9.989333e-01 -1.039493e-02 1.032231e-03 3.879433e-04
9.200000e+09 9.962477e-04 3.355906e-04 9.989285e-01 -1.050869e-02 9.989311e-01 -1.050881e-02 1.033407e-03 3.919837e-04
9.300000e+09 9.967717e-04 3.390187e-04 9.989263e-01 -1.062255e-02 9.989289e-01 -1.062267e-02 1.034593e-03 3.960173e-04
9.400000e+09 9.972993e-04 3.424401e-04 9.989241e-01 -1.073640e-02 9.989267e-01 -1.073652e-02 1.035790e-03 4.000440e-04
9.500000e+09 9.978305e-04 3.458548e-04 9.989219e-01 -1.085024e-02 9.989244e-01 -1.085036e-02 1.036998e-03 4.040637e-04
9.600000e+09 9.983651e-04 3.492627e-04 9.989196e-01 -1.096406e-02 9.989222e-01 -1.096418e-02 1.038216e-03 4.080764e-04
9.700000e+09 9.989032e-04 3.526638e-04 9.989173e-01 -1.107788e-02 9.989199e-01 -1.107800e-02 1.039444e-03 4.120821e-04
9.800000e+09 9.994447e-04 3.560581e-04 9.989150e-01 -1.119168e-02 9.989176e-01 -1.119181e-02 1.040683e-03 4.160807e-04
9.900000e+09 9.999895e-04 3.594455e-04 9.989127e-01 -1.130548e-02 9.989152e-01 -1.130560e-02 1.041932e-03 4.200722e-04
1.000000e+10 1.000538e-03 3.628260e-04 9.989103e-01 -1.141926e-02 9.989129e-01 -1.141939e-02 1.043192e-03 4.240565e-04
1.010000e+10 1.001089e-03 3.661994e-04 9.989079e-01 -1.153303e-02 9.989105e-01 -1.153316e-02 1.044462e-03 4.280335e-04
1.020000e+10 1.001643e-03 3.695659e-04 9.989055e-01 -1.164678e-02 9.989081e-01 -1.164692e-02 1.045742e-03 4.320033e-04
1.030000e+10 1.002200e-03 3.729253e-04 9.989031e-01 -1.176053e-02 9.989057e-01 -1.176067e-02 1.047032e-03 4.359657e-04
1.040000e+10 1.002761e-03 3.762775e-04 9.989007e-01 -1.187427e-02 9.989033e-01 -1.187440e-02 1.048332e-03 4.399208e-04
1.050000e+10 1.003324e-03 3.796227e-04 9.988982e-01 -1.198799e-02 9.989008e-01 -1.198813e-02 1.049642e-03 4.438685e-04
1.060000e+10 1.003890e-03 3.829606e-04 9.988958e-01 -1.210170e-02 9.988984e-01 -1.210184e-02 1.050961e-03 4.478087e-04
1.070000e+10 1.004459e-03 3.862913e-04 9.988933e-01 -1.221540e-02 9.988959e-01 -1.221554e-02 1.052291e-03 4.517414e-04
1.080000e+10 1.005031e-03 3.896147e-04 9.988908e-01 -1.232909e-02 9.988934e-01 -1.232923e-02 1.053630e-03 4.556666e-04
1.090000e+10 1.005605e-03 3.929309e-04 9.988882e-01 -1.244276e-02 9.988908e-01 -1.244291e-02 1.054979e-03 4.595842e-04
1.100000e+10 1.006182e-03 3.962396e-04 9.988857e-01 -1.255643e-02 9.988883e-01 -1.255658e-02 1.056338e-03 4.634942e-04
1.110000e+10 1.006762e-03 3.995410e-04 9.988831e-01 -1.267008e-02 9.988857e-01 -1.267023e-02 1.057706e-03 4.673966e-04
1.120000e+10 1.007344e-03 4.028350e-04 9.988805e-01 -1.278372e-02 9.988831e-01 -1.278387e-02 1.059083e-03 4.712913e-04
1.130000e+10 1.007928e-03 4.061216e-04 9.988779e-01 -1.289734e-02 9.988805e-01 -1.289750e-02 1.060470e-03 4.751782e-04
1.140000e+10 1.008515e-03 4.094006e-04 9.988753e-01 -1.301096e-02 9.988779e-01 -1.301112e-02 1.061866e-03 4.790574e-04
1.150000e+10 1.009104e-03 4.126721e-04 9.988727e-01 -1.312456e-02 9.988753e-01 -1.312472e-02 1.063272e-03 4.829288e-04
1.160000e+10 1.009696e-03 4.159361e-04 9.988700e-01 -1.323815e-02 9.988726e-01 -1.323832e-02 1.064687e-03 4.867923e-04
1.170000e+10 1.010289e-03 4.191925e-04 9.988673e-01 -1.335173e-02 9.988699e-01 -1.335190e-02 1.066110e-03 4.906480e-04
1.180000e+10 1.010885e-03 4.224412e-04 9.988646e-01 -1.346530e-02 9.988672e-01 -1.346546e-02 1.067543e-03 4.944957e-04
1.190000e+10 1.011482e-03 4.256824e-04 9.988619e-01 -1.357885e-02 9.988645e-01 -1.357902e-02 1.068985e-03 4.983356e-04
1.200000e+10 1.012082e-03 4.289158e-04 9.988592e-01 -1.369239e-02 9.988618e-01 -1.369256e-02 1.070435e-03 5.021674e-04
1.210000e+10 1.012683e-03 4.321415e-04 9.988564e-01 -1.380592e-02 9.988590e-01 -1.380609e-02 1.071895e-03 5.059913e-04
1.220000e+10 1.013286e-03 4.353595e-04 9.988537e-01 -1.391943e-02 9.988563e-01 -1.391961e-02 1.073363e-03 5.098071e-04
1.230000e+10 1.013891e-03 4.385697e-04 9.988509e-01 -1.403294e-02 9.988535e-01 -1.403312e-02 1.074840e-03 5.136149e-04
1.240000e+10 1.014498e-03 4.417722e-04 9.988481e-01 -1.414643e-02 9.988507e-01 -1.414661e-02 1.076326e-03 5.174146e-04
1.250000e+10 1.015106e-03 4.449668e-04 9.988452e-01 -1.425990e-02 9.988478e-01 -1.426009e-02 1.077820e-03 5.212062e-04
1.260000e+10 1.015716e-03 4.481535e-04 9.988424e-01 -1.437337e-02 9.988450e-01 -1.437356e-02 1.079322e-03 5.249896e-04
1.270000e+10 1.016327e-03 4.513324e-04 9.988395e-01 -1.448682e-02 9.988421e-01 -1.448701e-02 1.080833e-03 5.287648e-04
1.280000e+10 1.016939e-03 4.545034e-04 9.988367e-01 -1.460026e-02 9.988393e-01 -1.460045e-02 1.082352e-03 5.325319e-04
1.290000e+10 1.017553e-03 4.576665e-04 9.988338e-01 -1.471369e-02 9.988364e-01 -1.471388e-02 1.083880e-03 5.362907e-04
1.300000e+10 1.018169e-03 4.608217e-04 9.988309e-01 -1.482710e-02 9.988335e-01 -1.482730e-02 1.085415e-03 5.400413e-04
1.310000e+10 1.018785e-03 4.639688e-04 9.988279e-01 -1.494050e-02 9.988305e-01 -1.494070e-02 1.086959e-03 5.437836e-04
1.320000e+10 1.019402e-03 4.671080e-04 9.988250e-01 -1.505389e-02 9.988276e-01 -1.505409e-02 1.088511e-03 5.475176e-04
1.330000e+10 1.020021e-03 4.702392e-04 9.988220e-01 -1.516726e-02 9.988246e-01 -1.516747e-02 1.090071e-03 5.512433e-04
1.340000e+10 1.020641e-03 4.733624e-04 9.988190e-01 -1.528062e-02 9.988217e-01 -1.528083e-02 1.091638e-03 5.549607e-04
1.350000e+10 1.021261e-03 4.764775e-04 9.988160e-01 -1.539397e-02 9.988187e-01 -1.539418e-02 1.093214e-03 5.586696e-04
1.360000e+10 1.021883e-03 4.795845e-04 9.988130e-01 -1.550731e-02 9.988157e-01 -1.550752e-02 1.094797e-03 5.623702e-04
1.370000e+10 1.022505e-03 4.826835e-04 9.988100e-01 -1.562063e-02 9.988126e-01 -1.562085e-02 1.096388e-03 5.660624e-04
1.380000e+10 1.023128e-03 4.857743e-04 9.988070e-01 -1.573394e-02 9.988096e-01 -1.573416e-02 1.097986e-03 5.697462e-04
1.390000e+10 1.023751e-03 4.888571e-04 9.988039e-01 -1.584724e-02 9.988065e-01 -1.584746e-02 1.099592e-03 5.734215e-04
1.400000e+10 1.024375e-03 4.919317e-04 9.988008e-01 -1.596052e-02 9.988034e-01 -1.596075e-02 1.101206e-03 5.770884e-04
1.410000e+10 1.025000e-03 4.949982e-04 9.987977e-01 -1.607379e-02 9.988003e-01 -1.607402e-02 1.102826e-03 5.807468e-04
1.420000e+10 1.025625e-03 4.980565e-04 9.987946e-01 -1.618705e-02 9.987972e-01 -1.618728e-02 1.104455e-03 5.843967e-04
1.430000e+10 1.026251e-03 5.011066e-04 9.987915e-01 -1.630029e-02 9.987941e-01 -1.630053e-02 1.106090e-03 5.880381e-04
1.440000e+10 1.026876e-03 5.041485e-04 9.987883e-01 -1.641353e-02 9.987910e-01 -1.641376e-02 1.107732e-03 5.916710e-04
1.450000e+10 1.027502e-03 5.071823e-04 9.987852e-01 -1.652674e-02 9.987878e-01 -1.652698e-02 1.109382e-03 5.952954e-04
1.460000e+10 1.028129e-03 5.102078e-04 9.987820e-01 -1.663995e-02 9.987846e-01 -1.664019e-02 1.111039e-03 5.989112e-04
1.470000e+10 1.028755e-03 5.132251e-04 9.987788e-01 -1.675314e-02 9.987815e-01 -1.675338e-02 1.112702e-03 6.025184e-04
1.480000e+10 1.029381e-03 5.162342e-04 9.987756e-01 -1.686632e-02 9.987783e-01 -1.686657e-02 1.114373e-03 6.061171e-04
1.490000e+10 1.030007e-03 5.192350e-04 9.987724e-01 -1.697948e-02 9.987750e-01 -1.697973e-02 1.116050e-03 6.097071e-04
1.500000e+10 1.030634e-03 5.222276e-04 9.987692e-01 -1.709264e-02 9.987718e-01 -1.709289e-02 1.117734e-03 6.132886e-04
1.510000e+10 1.031260e-03 5.252119e-04 9.987659e-01 -1.720578e-02 9.987686e-01 -1.720603e-02 1.119424e-03 6.168615e-04
1.520000e+10 1.031885e-03 5.281879e-04 9.987626e-01 -1.731890e-02 9.987653e-01 -1.731916e-02 1.121121e-03 6.204258e-04
1.530000e+10 1.032511e-03 5.311557e-04 9.987594e-01 -1.743201e-02 9.987620e-01 -1.743228e-02 1.122825e-03 6.239814e-04
1.540000e+10 1.033136e-03 5.341152e-04 9.987561e-01 -1.754511e-02 9.987587e-01 -1.754538e-02 1.124535e-03 6.275284e-04
1.550000e+10 1.033760e-03 5.370664e-04 9.987528e-01 -1.765820e-02 9.987554e-01 -1.765847e-02 1.126252e-03 6.310668e-04
1.560000e+10 1.034385e-03 5.400094e-04 9.987494e-01 -1.777127e-02 9.987521e-01 -1.777154e-02 1.127974e-03 6.345965e-04
1.570000e+10 1.035008e-03 5.429440e-04 9.987461e-01 -1.788433e-02 9.987487e-01 -1.788461e-02 1.129703e-03 6.381176e-04
1.580000e+10 1.035631e-03 5.458703e-04 9.987427e-01 -1.799738e-02 9.987454e-01 -1.799766e-02 1.131439e-03 6.416301e-04
1.590000e+10 1.036253e-03 5.487884e-04 9.987394e-01 -1.811042e-02 9.987420e-01 -1.811070e-02 1.133180e-03 6.451338e-04
1.600000e+10 1.036874e-03 5.516981e-04 9.987360e-01 -1.822344e-02 9.987386e-01 -1.822372e-02 1.134927e-03 6.486290e-04
1.610000e+10 1.037495e-03 5.545995e-04 9.987326e-01 -1.833644e-02 9.987352e-01 -1.833673e-02 1.136680e-03 6.521154e-04
1.620000e+10 1.038115e-03 5.574926e-04 9.987292e-01 -1.844944e-02 9.987318e-01 -1.844973e-02 1.138439e-03 6.555932e-04
1.630000e+10 1.038733e-03 5.603775e-04 9.987258e-01 -1.856242e-02 9.987284e-01 -1.856271e-02 1.140204e-03 6.590623e-04
1.640000e+10 1.039351e-03 5.632540e-04 9.987223e-01 -1.867539e-02 9.987250e-01 -1.867568e-02 1.141974e-03 6.625228e-04
1.650000e+10 1.039967e-03 5.661222e-04 9.987189e-01 -1.878834e-02 9.987215e-01 -1.878864e-02 1.143751e-03 6.659746e-04
1.660000e+10 1.040582e-03 5.689821e-04 9.987154e-01 -1.890129e-02 9.987181e-01 -1.890159e-02 1.145532e-03 6.694177e-04
