#   Hz   S  RI   R   50
!
0.000000e+00 5.788231e-04 0.000000e+00 9.994232e-01 0.000000e+00 9.994302e-01 0.000000e+00 5.932710e-04 0.000000e+00
1.000000e+08 5.788233e-04 -3.946655e-06 9.994232e-01 -7.634430e-05 9.994302e-01 -7.106531e-05 5.932731e-04 8.120470e-07
2.000000e+08 5.788241e-04 -7.893333e-06 9.994231e-01 -1.526886e-04 9.994302e-01 -1.421306e-04 5.932794e-04 1.624076e-06
3.000000e+08 5.788254e-04 -1.184006e-05 9.994231e-01 -2.290327e-04 9.994302e-01 -2.131957e-04 5.932899e-04 2.436069e-06
4.000000e+08 5.788272e-04 -1.578685e-05 9.994231e-01 -3.053768e-04 9.994301e-01 -2.842607e-04 5.933046e-04 3.248007e-06
5.000000e+08 5.788296e-04 -1.973374e-05 9.994230e-01 -3.817206e-04 9.994301e-01 -3.553255e-04 5.933235e-04 4.059872e-06
6.000000e+08 5.788324e-04 -2.368075e-05 9.994230e-01 -4.580643e-04 9.994300e-01 -4.263900e-04 5.933466e-04 4.871647e-06
7.000000e+08 5.788358e-04 -2.762789e-05 9.994229e-01 -5.344077e-04 9.994300e-01 -4.974543e-04 5.933739e-04 5.683313e-06
8.000000e+08 5.788396e-04 -3.157520e-05 9.994229e-01 -6.107508e-04 9.994299e-01 -5.685181e-04 5.934054e-04 6.494852e-06
9.000000e+08 5.788440e-04 -3.552269e-05 9.994228e-01 -6.870935e-04 9.994298e-01 -6.395816e-04 5.934411e-04 7.306246e-06
1.000000e+09 5.788489e-04 -3.947040e-05 9.994227e-01 -7.634359e-04 9.994297e-01 -7.106446e-04 5.934810e-04 8.117477e-06
1.100000e+09 5.788543e-04 -4.341834e-05 9.994226e-01 -8.397778e-04 9.994296e-01 -7.817071e-04 5.935251e-04 8.928527e-06
1.200000e+09 5.788602e-04 -4.736653e-05 9.994225e-01 -9.161193e-04 9.994295e-01 -8.527690e-04 5.935733e-04 9.739377e-06
1.300000e+09 5.788666e-04 -5.131500e-05 9.994224e-01 -9.924602e-04 9.994294e-01 -9.238303e-04 5.936258e-04 1.055001e-05
1.400000e+09 5.788735e-04 -5.526378e-05 9.994223e-01 -1.068801e-03 9.994293e-01 -9.948909e-04 5.936825e-04 1.136041e-05
1.500000e+09 5.788809e-04 -5.921288e-05 9.994222e-01 -1.145140e-03 9.994291e-01 -1.065951e-03 5.937433e-04 1.217055e-05
1.600000e+09 5.788888e-04 -6.316233e-05 9.994220e-01 -1.221479e-03 9.994290e-01 -1.137010e-03 5.938083e-04 1.298042e-05
1.700000e+09 5.788972e-04 -6.711215e-05 9.994219e-01 -1.297818e-03 9.994288e-01 -1.208068e-03 5.938775e-04 1.379001e-05
1.800000e+09 5.789061e-04 -7.106237e-05 9.994217e-01 -1.374156e-03 9.994287e-01 -1.279126e-03 5.939509e-04 1.459928e-05
1.900000e+09 5.789154e-04 -7.501301e-05 9.994215e-01 -1.450493e-03 9.994285e-01 -1.350182e-03 5.940284e-04 1.540823e-05
2.000000e+09 5.789253e-04 -7.896408e-05 9.994214e-01 -1.526829e-03 9.994283e-01 -1.421238e-03 5.941102e-04 1.621684e-05
2.100000e+09 5.789356e-04 -8.291562e-05 9.994212e-01 -1.603164e-03 9.994281e-01 -1.492292e-03 5.941961e-04 1.702509e-05
2.200000e+09 5.789464e-04 -8.686765e-05 9.994210e-01 -1.679498e-03 9.994279e-01 -1.563346e-03 5.942861e-04 1.783296e-05
2.300000e+09 5.789576e-04 -9.082019e-05 9.994208e-01 -1.755832e-03 9.994277e-01 -1.634398e-03 5.943804e-04 1.864043e-05
2.400000e+09 5.789693e-04 -9.477326e-05 9.994206e-01 -1.832164e-03 9.994275e-01 -1.705449e-03 5.944787e-04 1.944748e-05
2.500000e+09 5.789815e-04 -9.872688e-05 9.994204e-01 -1.908496e-03 9.994272e-01 -1.776499e-03 5.945813e-04 2.025411e-05
2.600000e+09 5.789941e-04 -1.026811e-04 9.994201e-01 -1.984826e-03 9.994270e-01 -1.847548e-03 5.946880e-04 2.106028e-05
2.700000e+09 5.790072e-04 -1.066359e-04 9.994199e-01 -2.061155e-03 9.994267e-01 -1.918595e-03 5.947988e-04 2.186599e-05
2.800000e+09 5.790207e-04 -1.105913e-04 9.994197e-01 -2.137483e-03 9.994265e-01 -1.989641e-03 5.949138e-04 2.267121e-05
2.900000e+09 5.790346e-04 -1.145474e-04 9.994194e-01 -2.213810e-03 9.994262e-01 -2.060686e-03 5.950329e-04 2.347593e-05
3.000000e+09 5.790490e-04 -1.185041e-04 9.994192e-01 -2.290136e-03 9.994259e-01 -2.131729e-03 5.951562e-04 2.428013e-05
3.100000e+09 5.790637e-04 -1.224616e-04 9.994189e-01 -2.366460e-03 9.994256e-01 -2.202771e-03 5.952836e-04 2.508378e-05
3.200000e+09 5.790789e-04 -1.264197e-04 9.994186e-01 -2.442783e-03 9.994253e-01 -2.273811e-03 5.954151e-04 2.588689e-05
3.300000e+09 5.790945e-04 -1.303786e-04 9.994183e-01 -2.519105e-03 9.994250e-01 -2.344849e-03 5.955507e-04 2.668942e-05
3.400000e+09 5.791106e-04 -1.343382e-04 9.994180e-01 -2.595425e-03 9.994247e-01 -2.415886e-03 5.956905e-04 2.749136e-05
3.500000e+09 5.791270e-04 -1.382986e-04 9.994177e-01 -2.671744e-03 9.994244e-01 -2.486921e-03 5.958344e-04 2.829269e-05
3.600000e+09 5.791438e-04 -1.422599e-04 9.994174e-01 -2.748061e-03 9.994240e-01 -2.557954e-03 5.959823e-04 2.909340e-05
3.700000e+09 5.791609e-04 -1.462219e-04 9.994171e-01 -2.824377e-03 9.994237e-01 -2.628986e-03 5.961344e-04 2.989347e-05
3.800000e+09 5.791785e-04 -1.501848e-04 9.994167e-01 -2.900691e-03 9.994233e-01 -2.700015e-03 5.962906e-04 3.069287e-05
3.900000e+09 5.791964e-04 -1.541485e-04 9.994164e-01 -2.977004e-03 9.994230e-01 -2.771043e-03 5.964508e-04 3.149160e-05
4.000000e+09 5.792146e-04 -1.581132e-04 9.994161e-01 -3.053315e-03 9.994226e-01 -2.842069e-03 5.966151e-04 3.228964e-05
4.100000e+09 5.792333e-04 -1.620787e-04 9.994157e-01 -3.129624e-03 9.994222e-01 -2.913092e-03 5.967836e-04 3.308696e-05
4.200000e+09 5.792522e-04 -1.660452e-04 9.994153e-01 -3.205932e-03 9.994218e-01 -2.984114e-03 5.969560e-04 3.388356e-05
4.300000e+09 5.792715e-04 -1.700127e-04 9.994149e-01 -3.282238e-03 9.994214e-01 -3.055134e-03 5.971326e-04 3.467941e-05
4.400000e+09 5.792911e-04 -1.739811e-04 9.994146e-01 -3.358542e-03 9.994210e-01 -3.126151e-03 5.973132e-04 3.547451e-05
4.500000e+09 5.793110e-04 -1.779505e-04 9.994142e-01 -3.434844e-03 9.994206e-01 -3.197166e-03 5.974979e-04 3.626882e-05
4.600000e+09 5.793312e-04 -1.819209e-04 9.994138e-01 -3.511144e-03 9.994201e-01 -3.268179e-03 5.976866e-04 3.706233e-05
4.700000e+09 5.793517e-04 -1.858924e-04 9.994134e-01 -3.587443e-03 9.994197e-01 -3.339190e-03 5.978793e-04 3.785504e-05
4.800000e+09 5.793725e-04 -1.898650e-04 9.994129e-01 -3.663739e-03 9.994193e-01 -3.410199e-03 5.980761e-04 3.864692e-05
4.900000e+09 5.793936e-04 -1.938386e-04 9.994125e-01 -3.740034e-03 9.994188e-01 -3.481205e-03 5.982769e-04 3.943795e-05
5.000000e+09 5.794150e-04 -1.978133e-04 9.994121e-01 -3.816326e-03 9.994183e-01 -3.552208e-03 5.984817e-04 4.022812e-05
5.100000e+09 5.794365e-04 -2.017891e-04 9.994116e-01 -3.892616e-03 9.994179e-01 -3.623209e-03 5.986905e-04 4.101741e-05
5.200000e+09 5.794584e-04 -2.057661e-04 9.994112e-01 -3.968905e-03 9.994174e-01 -3.694208e-03 5.989033e-04 4.180581e-05
5.300000e+09 5.794805e-04 -2.097443e-04 9.994107e-01 -4.045191e-03 9.994169e-01 -3.765204e-03 5.991201e-04 4.259329e-05
5.400000e+09 5.795028e-04 -2.137236e-04 9.994102e-01 -4.121475e-03 9.994164e-01 -3.836198e-03 5.993409e-04 4.337985e-05
5.500000e+09 5.795253e-04 -2.177042e-04 9.994098e-01 -4.197756e-03 9.994159e-01 -3.907189e-03 5.995657e-04 4.416547e-05
5.600000e+09 5.795480e-04 -2.216859e-04 9.994093e-01 -4.274036e-03 9.994153e-01 -3.978177e-03 5.997944e-04 4.495013e-05
5.700000e+09 5.795709e-04 -2.256690e-04 9.994088e-01 -4.350313e-03 9.994148e-01 -4.049162e-03 6.000271e-04 4.573381e-05
5.800000e+09 5.795939e-04 -2.296532e-04 9.994083e-01 -4.426587e-03 9.994143e-01 -4.120145e-03 6.002638e-04 4.651650e-05
5.900000e+09 5.796172e-04 -2.336388e-04 9.994078e-01 -4.502860e-03 9.994137e-01 -4.191125e-03 6.005044e-04 4.729818e-05
6.000000e+09 5.796406e-04 -2.376257e-04 9.994072e-01 -4.579130e-03 9.994132e-01 -4.262102e-03 6.007489e-04 4.807884e-05
6.100000e+09 5.796641e-04 -2.416139e-04 9.994067e-01 -4.655397e-03 9.994126e-01 -4.333076e-03 6.009974e-04 4.885846e-05
6.200000e+09 5.796878e-04 -2.456034e-04 9.994062e-01 -4.731662e-03 9.994120e-01 -4.404047e-03 6.012498e-04 4.963703e-05
6.300000e+09 5.797116e-04 -2.495944e-04 9.994056e-01 -4.807925e-03 9.994114e-01 -4.475015e-03 6.015061e-04 5.041453e-05
6.400000e+09 5.797355e-04 -2.535867e-04 9.994051e-01 -4.884185e-03 9.994108e-01 -4.545981e-03 6.017663e-04 5.119094e-05
6.500000e+09 5.797595e-04 -2.575804e-04 9.994045e-01 -4.960442e-03 9.994102e-01 -4.616943e-03 6.020304e-04 5.196625e-05
6.600000e+09 5.797835e-04 -2.615755e-04 9.994039e-01 -5.036697e-03 9.994096e-01 -4.687902e-03 6.022983e-04 5.274044e-05
6.700000e+09 5.798077e-04 -2.655721e-04 9.994033e-01 -5.112949e-03 9.994090e-01 -4.758858e-03 6.025702e-04 5.351351e-05
6.800000e+09 5.798318e-04 -2.695701e-04 9.994027e-01 -5.189198e-03 9.994084e-01 -4.829810e-03 6.028459e-04 5.428542e-05
6.900000e+09 5.798561e-04 -2.735696e-04 9.994021e-01 -5.265445e-03 9.994077e-01 -4.900760e-03 6.031254e-04 5.505618e-05
7.000000e+09 5.798803e-04 -2.775706e-04 9.994015e-01 -5.341689e-03 9.994071e-01 -4.971706e-03 6.034088e-04 5.582576e-05
7.100000e+09 5.799046e-04 -2.815731e-04 9.994009e-01 -5.417930e-03 9.994064e-01 -5.042649e-03 6.036960e-04 5.659414e-05
7.200000e+09 5.799289e-04 -2.855772e-04 9.994003e-01 -5.494168e-03 9.994058e-01 -5.113588e-03 6.039871e-04 5.736133e-05
7.300000e+09 5.799531e-04 -2.895828e-04 9.993997e-01 -5.570403e-03 9.994051e-01 -5.184524e-03 6.042819e-04 5.812729e-05
7.400000e+09 5.799774e-04 -2.935900e-04 9.993990e-01 -5.646636e-03 9.994044e-01 -5.255457e-03 6.045806e-04 5.889201e-05
7.500000e+09 5.800016e-04 -2.975988e-04 9.993984e-01 -5.722865e-03 9.994037e-01 -5.326386e-03 6.048831e-04 5.965548e-05
7.600000e+09 5.800257e-04 -3.016092e-04 9.993977e-01 -5.799092e-03 9.994030e-01 -5.397312e-03 6.051893e-04 6.041769e-05
7.700000e+09 5.800498e-04 -3.056212e-04 9.993970e-01 -5.875315e-03 9.994023e-01 -5.468234e-03 6.054993e-04 6.117862e-05
7.800000e+09 5.800737e-04 -3.096348e-04 9.993964e-01 -5.951536e-03 9.994016e-01 -5.539153e-03 6.058131e-04 6.193826e-05
7.900000e+09 5.800976e-04 -3.136501e-04 9.993957e-01 -6.027754e-03 9.994009e-01 -5.610068e-03 6.061306e-04 6.269659e-05
8.000000e+09 5.801214e-04 -3.176671e-04 9.993950e-01 -6.103968e-03 9.994001e-01 -5.680980e-03 6.064518e-04 6.345360e-05
8.100000e+09 5.801450e-04 -3.216858e-04 9.993943e-01 -6.180179e-03 9.993994e-01 -5.751887e-03 6.067768e-04 6.420927e-05
8.200000e+09 5.801685e-04 -3.257062e-04 9.993936e-01 -6.256387e-03 9.993986e-01 -5.822791e-03 6.071055e-04 6.496359e-05
8.300000e+09 5.801918e-04 -3.297283e-04 9.993929e-01 -6.332592e-03 9.993979e-01 -5.893692e-03 6.074379e-04 6.571655e-05
8.400000e+09 5.802150e-04 -3.337522e-04 9.993921e-01 -6.408794e-03 9.993971e-01 -5.964588e-03 6.077740e-04 6.646814e-05
8.500000e+09 5.802379e-04 -3.377779e-04 9.993914e-01 -6.484992e-03 9.993963e-01 -6.035481e-03 6.081138e-04 6.721833e-05
8.600000e+09 5.802607e-04 -3.418053e-04 9.993907e-01 -6.561188e-03 9.993955e-01 -6.106369e-03 6.084572e-04 6.796712e-05
8.700000e+09 5.802832e-04 -3.458345e-04 9.993899e-01 -6.637379e-03 9.993947e-01 -6.177254e-03 6.088043e-04 6.871449e-05
8.800000e+09 5.803055e-04 -3.498655e-04 9.993892e-01 -6.713568e-03 9.993939e-01 -6.248135e-03 6.091550e-04 6.946043e-05
8.900000e+09 5.803275e-04 -3.538984e-04 9.993884e-01 -6.789753e-03 9.993931e-01 -6.319012e-03 6.095094e-04 7.020493e-05
9.000000e+09 5.803493e-04 -3.579331e-04 9.993876e-01 -6.865935e-03 9.993923e-01 -6.389885e-03 6.098674e-04 7.094797e-05
9.100000e+09 5.803707e-04 -3.619696e-04 9.993868e-01 -6.942113e-03 9.993915e-01 -6.460754e-03 6.102290e-04 7.168954e-05
9.200000e+09 5.803919e-04 -3.660081e-04 9.993861e-01 -7.018288e-03 9.993906e-01 -6.531619e-03 6.105943e-04 7.242963e-05
9.300000e+09 5.804128e-04 -3.700484e-04 9.993853e-01 -7.094460e-03 9.993898e-01 -6.602480e-03 6.109631e-04 7.316822e-05
9.400000e+09 5.804333e-04 -3.740906e-04 9.993845e-01 -7.170627e-03 9.993890e-01 -6.673337e-03 6.113354e-04 7.390531e-05
9.500000e+09 5.804534e-04 -3.781347e-04 9.993836e-01 -7.246792e-03 9.993881e-01 -6.744189e-03 6.117114e-04 7.464087e-05
9.600000e+09 5.804732e-04 -3.821808e-04 9.993828e-01 -7.322953e-03 9.993872e-01 -6.815038e-03 6.120909e-04 7.537490e-05
9.700000e+09 5.804926e-04 -3.862289e-04 9.993820e-01 -7.399110e-03 9.993863e-01 -6.885882e-03 6.124739e-04 7.610739e-05
9.800000e+09 5.805116e-04 -3.902789e-04 9.993812e-01 -7.475264e-03 9.993855e-01 -6.956722e-03 6.128604e-04 7.683832e-05
9.900000e+09 5.805301e-04 -3.943308e-04 9.993803e-01 -7.551414e-03 9.993846e-01 -7.027558e-03 6.132505e-04 7.756767e-05
1.000000e+10 5.805482e-04 -3.983848e-04 9.993795e-01 -7.627560e-03 9.993837e-01 -7.098389e-03 6.136440e-04 7.829545e-05
1.010000e+10 5.805659e-04 -4.024408e-04 9.993786e-01 -7.703702e-03 9.993828e-01 -7.169216e-03 6.140411e-04 7.902163e-05
1.020000e+10 5.805831e-04 -4.064988e-04 9.993777e-01 -7.779841e-03 9.993818e-01 -7.240039e-03 6.144416e-04 7.974621e-05
1.030000e+10 5.805997e-04 -4.105588e-04 9.993768e-01 -7.855977e-03 9.993809e-01 -7.310857e-03 6.148456e-04 8.046917e-05
1.040000e+10 5.806159e-04 -4.146209e-04 9.993760e-01 -7.932108e-03 9.993800e-01 -7.381671e-03 6.152530e-04 8.119050e-05
1.050000e+10 5.806316e-04 -4.186850e-04 9.993751e-01 -8.008236e-03 9.993790e-01 -7.452481e-03 6.156638e-04 8.191019e-05
1.060000e+10 5.806467e-04 -4.227513e-04 9.993742e-01 -8.084359e-03 9.993781e-01 -7.523286e-03 6.160781e-04 8.262823e-05
1.070000e+10 5.806612e-04 -4.268196e-04 9.993733e-01 -8.160479e-03 9.993771e-01 -7.594087e-03 6.164958e-04 8.334461e-05
1.080000e+10 5.806751e-04 -4.308900e-04 9.993723e-01 -8.236595e-03 9.993762e-01 -7.664883e-03 6.169168e-04 8.405931e-05
1.090000e+10 5.806885e-04 -4.349625e-04 9.993714e-01 -8.312708e-03 9.993752e-01 -7.735674e-03 6.173413e-04 8.477232e-05
1.100000e+10 5.807012e-04 -4.390372e-04 9.993705e-01 -8.388816e-03 9.993742e-01 -7.806461e-03 6.177691e-04 8.548365e-05
1.110000e+10 5.807133e-04 -4.431140e-04 9.993695e-01 -8.464920e-03 9.993732e-01 -7.877243e-03 6.182003e-04 8.619326e-05
1.120000e+10 5.807247e-04 -4.471929e-04 9.993686e-01 -8.541021e-03 9.993722e-01 -7.948021e-03 6.186348e-04 8.690116e-05
1.130000e+10 5.807354e-04 -4.512740e-04 9.993676e-01 -8.617117e-03 9.993712e-01 -8.018794e-03 6.190726e-04 8.760733e-05
1.140000e+10 5.807455e-04 -4.553573e-04 9.993667e-01 -8.693210e-03 9.993702e-01 -8.089563e-03 6.195137e-04 8.831176e-05
1.150000e+10 5.807548e-04 -4.594428e-04 9.993657e-01 -8.769298e-03 9.993692e-01 -8.160327e-03 6.199582e-04 8.901444e-05
1.160000e+10 5.807634e-04 -4.635305e-04 9.993647e-01 -8.845382e-03 9.993681e-01 -8.231086e-03 6.204059e-04 8.971536e-05
1.170000e+10 5.807713e-04 -4.676204e-04 9.993637e-01 -8.921463e-03 9.993671e-01 -8.301840e-03 6.208569e-04 9.041452e-05
1.180000e+10 5.807783e-04 -4.717125e-04 9.993627e-01 -8.997539e-03 9.993661e-01 -8.372590e-03 6.213111e-04 9.111189e-05
1.190000e+10 5.807846e-04 -4.758069e-04 9.993617e-01 -9.073611e-03 9.993650e-01 -8.443335e-03 6.217686e-04 9.180748e-05
1.200000e+10 5.807901e-04 -4.799035e-04 9.993607e-01 -9.149679e-03 9.993639e-01 -8.514075e-03 6.222293e-04 9.250127e-05
1.210000e+10 5.807947e-04 -4.840023e-04 9.993597e-01 -9.225743e-03 9.993629e-01 -8.584810e-03 6.226932e-04 9.319324e-05
1.220000e+10 5.807985e-04 -4.881034e-04 9.993587e-01 -9.301803e-03 9.993618e-01 -8.655540e-03 6.231604e-04 9.388341e-05
1.230000e+10 5.808015e-04 -4.922068e-04 9.993576e-01 -9.377859e-03 9.993607e-01 -8.726266e-03 6.236307e-04 9.457174e-05
1.240000e+10 5.808035e-04 -4.963125e-04 9.993566e-01 -9.453910e-03 9.993596e-01 -8.796987e-03 6.241041e-04 9.525824e-05
1.250000e+10 5.808047e-04 -5.004205e-04 9.993556e-01 -9.529957e-03 9.993585e-01 -8.867703e-03 6.245808e-04 9.594289e-05
1.260000e+10 5.808049e-04 -5.045308e-04 9.993545e-01 -9.606000e-03 9.993574e-01 -8.938414e-03 6.250605e-04 9.662569e-05
1.270000e+10 5.808041e-04 -5.086434e-04 9.993534e-01 -9.682039e-03 9.993563e-01 -9.009120e-03 6.255434e-04 9.730662e-05
1.280000e+10 5.808024e-04 -5.127584e-04 9.993524e-01 -9.758073e-03 9.993552e-01 -9.079821e-03 6.260295e-04 9.798568e-05
1.290000e+10 5.807998e-04 -5.168756e-04 9.993513e-01 -9.834103e-03 9.993541e-01 -9.150517e-03 6.265186e-04 9.866286e-05
1.300000e+10 5.807961e-04 -5.209952e-04 9.993502e-01 -9.910129e-03 9.993529e-01 -9.221208e-03 6.270107e-04 9.933815e-05
1.310000e+10 5.807914e-04 -5.251172e-04 9.993491e-01 -9.986151e-03 9.993518e-01 -9.291894e-03 6.275060e-04 1.000115e-04
1.320000e+10 5.807856e-04 -5.292416e-04 9.993480e-01 -1.006217e-02 9.993506e-01 -9.362575e-03 6.280043e-04 1.006830e-04
1.330000e+10 5.807788e-04 -5.333683e-04 9.993469e-01 -1.013818e-02 9.993495e-01 -9.433252e-03 6.285057e-04 1.013526e-04
1.340000e+10 5.807709e-04 -5.374974e-04 9.993458e-01 -1.021419e-02 9.993483e-01 -9.503923e-03 6.290100e-04 1.020203e-04
1.350000e+10 5.807618e-04 -5.416289e-04 9.993447e-01 -1.029019e-02 9.993472e-01 -9.574589e-03 6.295174e-04 1.026860e-04
1.360000e+10 5.807517e-04 -5.457627e-04 9.993435e-01 -1.036619e-02 9.993460e-01 -9.645250e-03 6.300278e-04 1.033498e-04
1.370000e+10 5.807404e-04 -5.498990e-04 9.993424e-01 -1.044219e-02 9.993448e-01 -9.715906e-03 6.305411e-04 1.040116e-04
1.380000e+10 5.807280e-04 -5.540377e-04 9.993413e-01 -1.051818e-02 9.993436e-01 -9.786557e-03 6.310575e-04 1.046715e-04
1.390000e+10 5.807144e-04 -5.581789e-04 9.993401e-01 -1.059417e-02 9.993424e-01 -9.857203e-03 6.315767e-04 1.053294e-04
1.400000e+10 5.806995e-04 -5.623224e-04 9.993390e-01 -1.067015e-02 9.993412e-01 -9.927843e-03 6.320989e-04 1.059853e-04
1.410000e+10 5.806835e-04 -5.664684e-04 9.993378e-01 -1.074613e-02 9.993400e-01 -9.998479e-03 6.326240e-04 1.066393e-04
1.420000e+10 5.806662e-04 -5.706168e-04 9.993366e-01 -1.082210e-02 9.993388e-01 -1.006911e-02 6.331521e-04 1.072913e-04
1.430000e+10 5.806476e-04 -5.747677e-04 9.993354e-01 -1.089807e-02 9.993375e-01 -1.013973e-02 6.336830e-04 1.079413e-04
1.440000e+10 5.806277e-04 -5.789211e-04 9.993342e-01 -1.097403e-02 9.993363e-01 -1.021035e-02 6.342168e-04 1.085893e-04
1.450000e+10 5.806066e-04 -5.830769e-04 9.993331e-01 -1.104999e-02 9.993351e-01 -1.028097e-02 6.347534e-04 1.092353e-04
1.460000e+10 5.805841e-04 -5.872352e-04 9.993319e-01 -1.112595e-02 9.993338e-01 -1.035158e-02 6.352929e-04 1.098793e-04
1.470000e+10 5.805602e-04 -5.913959e-04 9.993306e-01 -1.120190e-02 9.993326e-01 -1.042218e-02 6.358352e-04 1.105212e-04
1.480000e+10 5.805350e-04 -5.955592e-04 9.993294e-01 -1.127784e-02 9.993313e-01 -1.049278e-02 6.363804e-04 1.111612e-04
1.490000e+10 5.805084e-04 -5.997249e-04 9.993282e-01 -1.135379e-02 9.993300e-01 -1.056338e-02 6.369283e-04 1.117991e-04
1.500000e+10 5.804804e-04 -6.038931e-04 9.993270e-01 -1.142972e-02 9.993288e-01 -1.063397e-02 6.374790e-04 1.124350e-04
1.510000e+10 5.804510e-04 -6.080639e-04 9.993257e-01 -1.150566e-02 9.993275e-01 -1.070455e-02 6.380325e-04 1.130688e-04
1.520000e+10 5.804201e-04 -6.122371e-04 9.993245e-01 -1.158158e-02 9.993262e-01 -1.077513e-02 6.385887e-04 1.137006e-04
1.530000e+10 5.803878e-04 -6.164129e-04 9.993232e-01 -1.165751e-02 9.993249e-01 -1.084570e-02 6.391477e-04 1.143304e-04
1.540000e+10 5.803540e-04 -6.205911e-04 9.993220e-01 -1.173343e-02 9.993236e-01 -1.091627e-02 6.397094e-04 1.149580e-04
1.550000e+10 5.803186e-04 -6.247719e-04 9.993207e-01 -1.180934e-02 9.993223e-01 -1.098683e-02 6.402738e-04 1.155836e-04
1.560000e+10 5.802817e-04 -6.289552e-04 9.993194e-01 -1.188525e-02 9.993210e-01 -1.105739e-02 6.408409e-04 1.162072e-04
1.570000e+10 5.802433e-04 -6.331411e-04 9.993182e-01 -1.196116e-02 9.993197e-01 -1.112794e-02 6.414107e-04 1.168286e-04
1.580000e+10 5.802033e-04 -6.373295e-04 9.993169e-01 -1.203706e-02 9.993183e-01 -1.119849e-02 6.419831e-04 1.174480e-04
1.590000e+10 5.801617e-04 -6.415204e-04 9.993156e-01 -1.211295e-02 9.993170e-01 -1.126903e-02 6.425582e-04 1.180653e-04
1.600000e+10 5.801185e-04 -6.457139e-04 9.993143e-01 -1.218884e-02 9.993156e-01 -1.133957e-02 6.431359e-04 1.186805e-04
1.610000e+10 5.800737e-04 -6.499099e-04 9.993130e-01 -1.226473e-02 9.993143e-01 -1.141010e-02 6.437162e-04 1.192936e-04
1.620000e+10 5.800272e-04 -6.541085e-04 9.993117e-01 -1.234061e-02 9.993129e-01 -1.148063e-02 6.442992e-04 1.199046e-04
1.630000e+10 5.799791e-04 -6.583096e-04 9.993104e-01 -1.241649e-02 9.993116e-01 -1.155115e-02 6.448847e-04 1.205135e-04
1.640000e+10 5.799292e-04 -6.625133e-04 9.993090e-01 -1.249236e-02 9.993102e-01 -1.162166e-02 6.454728e-04 1.211203e-04
1.650000e+10 5.798776e-04 -6.667196e-04 9.993077e-01 -1.256823e-02 9.993088e-01 -1.169217e-02 6.460634e-04 1.217250e-04
