#   Hz   S  RI   R   50
!
0.000000e+00 2.112595e-03 0.000000e+00 9.979057e-01 0.000000e+00 9.978844e-01 0.000000e+00 2.099518e-03 0.000000e+00
1.000000e+08 2.112618e-03 3.728878e-05 9.979056e-01 -2.314816e-04 9.978844e-01 -2.312091e-04 2.099556e-03 3.959808e-05
2.000000e+08 2.112688e-03 7.457714e-05 9.979054e-01 -4.629625e-04 9.978842e-01 -4.624176e-04 2.099669e-03 7.919568e-05
3.000000e+08 2.112804e-03 1.118646e-04 9.979052e-01 -6.944422e-04 9.978840e-01 -6.936249e-04 2.099859e-03 1.187923e-04
4.000000e+08 2.112966e-03 1.491509e-04 9.979048e-01 -9.259199e-04 9.978836e-01 -9.248306e-04 2.100123e-03 1.583874e-04
5.000000e+08 2.113175e-03 1.864354e-04 9.979043e-01 -1.157395e-03 9.978831e-01 -1.156034e-03 2.100463e-03 1.979806e-04
6.000000e+08 2.113430e-03 2.237178e-04 9.979037e-01 -1.388867e-03 9.978825e-01 -1.387234e-03 2.100879e-03 2.375714e-04
7.000000e+08 2.113732e-03 2.609977e-04 9.979030e-01 -1.620335e-03 9.978819e-01 -1.618431e-03 2.101370e-03 2.771592e-04
8.000000e+08 2.114079e-03 2.982746e-04 9.979022e-01 -1.851799e-03 9.978811e-01 -1.849624e-03 2.101937e-03 3.167436e-04
9.000000e+08 2.114473e-03 3.355482e-04 9.979012e-01 -2.083257e-03 9.978802e-01 -2.080813e-03 2.102580e-03 3.563241e-04
1.000000e+09 2.114914e-03 3.728179e-04 9.979002e-01 -2.314710e-03 9.978792e-01 -2.311996e-03 2.103297e-03 3.959001e-04
1.100000e+09 2.115400e-03 4.100834e-04 9.978991e-01 -2.546156e-03 9.978781e-01 -2.543173e-03 2.104090e-03 4.354713e-04
1.200000e+09 2.115933e-03 4.473442e-04 9.978978e-01 -2.777595e-03 9.978769e-01 -2.774344e-03 2.104958e-03 4.750372e-04
1.300000e+09 2.116511e-03 4.846000e-04 9.978965e-01 -3.009027e-03 9.978756e-01 -3.005509e-03 2.105902e-03 5.145971e-04
1.400000e+09 2.117136e-03 5.218502e-04 9.978950e-01 -3.240450e-03 9.978742e-01 -3.236665e-03 2.106921e-03 5.541508e-04
1.500000e+09 2.117807e-03 5.590946e-04 9.978934e-01 -3.471865e-03 9.978727e-01 -3.467814e-03 2.108014e-03 5.936976e-04
1.600000e+09 2.118523e-03 5.963326e-04 9.978917e-01 -3.703269e-03 9.978711e-01 -3.698954e-03 2.109183e-03 6.332371e-04
1.700000e+09 2.119286e-03 6.335639e-04 9.978899e-01 -3.934664e-03 9.978694e-01 -3.930085e-03 2.110427e-03 6.727689e-04
1.800000e+09 2.120094e-03 6.707880e-04 9.978880e-01 -4.166048e-03 9.978675e-01 -4.161207e-03 2.111746e-03 7.122923e-04
1.900000e+09 2.120947e-03 7.080046e-04 9.978860e-01 -4.397420e-03 9.978656e-01 -4.392318e-03 2.113139e-03 7.518070e-04
2.000000e+09 2.121847e-03 7.452131e-04 9.978839e-01 -4.628780e-03 9.978636e-01 -4.623418e-03 2.114607e-03 7.913126e-04
2.100000e+09 2.122791e-03 7.824133e-04 9.978817e-01 -4.860128e-03 9.978615e-01 -4.854507e-03 2.116149e-03 8.308084e-04
2.200000e+09 2.123782e-03 8.196046e-04 9.978794e-01 -5.091462e-03 9.978592e-01 -5.085584e-03 2.117766e-03 8.702940e-04
2.300000e+09 2.124817e-03 8.567868e-04 9.978769e-01 -5.322782e-03 9.978569e-01 -5.316648e-03 2.119458e-03 9.097690e-04
2.400000e+09 2.125898e-03 8.939593e-04 9.978744e-01 -5.554088e-03 9.978545e-01 -5.547699e-03 2.121223e-03 9.492329e-04
2.500000e+09 2.127023e-03 9.311217e-04 9.978717e-01 -5.785378e-03 9.978519e-01 -5.778737e-03 2.123063e-03 9.886852e-04
2.600000e+09 2.128194e-03 9.682737e-04 9.978690e-01 -6.016653e-03 9.978493e-01 -6.009760e-03 2.124976e-03 1.028125e-03
2.700000e+09 2.129410e-03 1.005415e-03 9.978661e-01 -6.247911e-03 9.978465e-01 -6.240769e-03 2.126963e-03 1.067553e-03
2.800000e+09 2.130670e-03 1.042545e-03 9.978631e-01 -6.479152e-03 9.978437e-01 -6.471762e-03 2.129024e-03 1.106968e-03
2.900000e+09 2.131975e-03 1.079663e-03 9.978600e-01 -6.710376e-03 9.978407e-01 -6.702740e-03 2.131159e-03 1.146369e-03
3.000000e+09 2.133324e-03 1.116769e-03 9.978569e-01 -6.941582e-03 9.978377e-01 -6.933701e-03 2.133366e-03 1.185757e-03
3.100000e+09 2.134718e-03 1.153863e-03 9.978536e-01 -7.172768e-03 9.978345e-01 -7.164646e-03 2.135647e-03 1.225130e-03
3.200000e+09 2.136155e-03 1.190944e-03 9.978502e-01 -7.403936e-03 9.978313e-01 -7.395573e-03 2.138001e-03 1.264488e-03
3.300000e+09 2.137637e-03 1.228011e-03 9.978467e-01 -7.635083e-03 9.978279e-01 -7.626482e-03 2.140428e-03 1.303831e-03
3.400000e+09 2.139163e-03 1.265065e-03 9.978431e-01 -7.866210e-03 9.978245e-01 -7.857373e-03 2.142928e-03 1.343158e-03
3.500000e+09 2.140733e-03 1.302105e-03 9.978393e-01 -8.097315e-03 9.978209e-01 -8.088244e-03 2.145500e-03 1.382469e-03
3.600000e+09 2.142346e-03 1.339131e-03 9.978355e-01 -8.328399e-03 9.978173e-01 -8.319096e-03 2.148145e-03 1.421763e-03
3.700000e+09 2.144002e-03 1.376142e-03 9.978316e-01 -8.559460e-03 9.978135e-01 -8.549928e-03 2.150861e-03 1.461040e-03
3.800000e+09 2.145702e-03 1.413137e-03 9.978276e-01 -8.790499e-03 9.978096e-01 -8.780740e-03 2.153650e-03 1.500300e-03
3.900000e+09 2.147445e-03 1.450117e-03 9.978235e-01 -9.021514e-03 9.978057e-01 -9.011530e-03 2.156510e-03 1.539542e-03
4.000000e+09 2.149231e-03 1.487081e-03 9.978192e-01 -9.252505e-03 9.978016e-01 -9.242299e-03 2.159442e-03 1.578765e-03
4.100000e+09 2.151060e-03 1.524029e-03 9.978149e-01 -9.483472e-03 9.977975e-01 -9.473045e-03 2.162446e-03 1.617970e-03
4.200000e+09 2.152931e-03 1.560960e-03 9.978105e-01 -9.714413e-03 9.977932e-01 -9.703769e-03 2.165520e-03 1.657155e-03
4.300000e+09 2.154845e-03 1.597874e-03 9.978059e-01 -9.945329e-03 9.977889e-01 -9.934470e-03 2.168666e-03 1.696321e-03
4.400000e+09 2.156800e-03 1.634770e-03 9.978013e-01 -1.017622e-02 9.977844e-01 -1.016515e-02 2.171882e-03 1.735466e-03
4.500000e+09 2.158798e-03 1.671649e-03 9.977965e-01 -1.040708e-02 9.977799e-01 -1.039580e-02 2.175169e-03 1.774591e-03
4.600000e+09 2.160838e-03 1.708509e-03 9.977917e-01 -1.063792e-02 9.977752e-01 -1.062643e-02 2.178525e-03 1.813695e-03
4.700000e+09 2.162919e-03 1.745351e-03 9.977867e-01 -1.086872e-02 9.977705e-01 -1.085703e-02 2.181953e-03 1.852778e-03
4.800000e+09 2.165042e-03 1.782174e-03 9.977817e-01 -1.109950e-02 9.977656e-01 -1.108761e-02 2.185449e-03 1.891838e-03
4.900000e+09 2.167205e-03 1.818977e-03 9.977765e-01 -1.133025e-02 9.977607e-01 -1.131816e-02 2.189016e-03 1.930877e-03
5.000000e+09 2.169410e-03 1.855761e-03 9.977713e-01 -1.156097e-02 9.977556e-01 -1.154869e-02 2.192651e-03 1.969893e-03
5.100000e+09 2.171656e-03 1.892525e-03 9.977659e-01 -1.179166e-02 9.977505e-01 -1.177918e-02 2.196356e-03 2.008885e-03
5.200000e+09 2.173942e-03 1.929269e-03 9.977605e-01 -1.202232e-02 9.977453e-01 -1.200966e-02 2.200130e-03 2.047855e-03
5.300000e+09 2.176269e-03 1.965992e-03 9.977549e-01 -1.225295e-02 9.977399e-01 -1.224010e-02 2.203972e-03 2.086800e-03
5.400000e+09 2.178635e-03 2.002694e-03 9.977493e-01 -1.248355e-02 9.977345e-01 -1.247051e-02 2.207883e-03 2.125722e-03
5.500000e+09 2.181042e-03 2.039375e-03 9.977435e-01 -1.271412e-02 9.977290e-01 -1.270090e-02 2.211861e-03 2.164618e-03
5.600000e+09 2.183488e-03 2.076033e-03 9.977377e-01 -1.294465e-02 9.977234e-01 -1.293125e-02 2.215907e-03 2.203490e-03
5.700000e+09 2.185973e-03 2.112670e-03 9.977317e-01 -1.317515e-02 9.977177e-01 -1.316158e-02 2.220021e-03 2.242336e-03
5.800000e+09 2.188498e-03 2.149285e-03 9.977257e-01 -1.340561e-02 9.977119e-01 -1.339188e-02 2.224202e-03 2.281156e-03
5.900000e+09 2.191061e-03 2.185876e-03 9.977196e-01 -1.363605e-02 9.977060e-01 -1.362214e-02 2.228450e-03 2.319951e-03
6.000000e+09 2.193664e-03 2.222445e-03 9.977133e-01 -1.386644e-02 9.977000e-01 -1.385238e-02 2.232764e-03 2.358718e-03
6.100000e+09 2.196304e-03 2.258990e-03 9.977070e-01 -1.409681e-02 9.976939e-01 -1.408258e-02 2.237145e-03 2.397459e-03
6.200000e+09 2.198983e-03 2.295512e-03 9.977006e-01 -1.432713e-02 9.976877e-01 -1.431275e-02 2.241592e-03 2.436173e-03
6.300000e+09 2.201700e-03 2.332010e-03 9.976940e-01 -1.455743e-02 9.976814e-01 -1.454289e-02 2.246105e-03 2.474858e-03
6.400000e+09 2.204454e-03 2.368483e-03 9.976874e-01 -1.478768e-02 9.976751e-01 -1.477299e-02 2.250683e-03 2.513516e-03
6.500000e+09 2.207246e-03 2.404932e-03 9.976807e-01 -1.501790e-02 9.976686e-01 -1.500307e-02 2.255326e-03 2.552146e-03
6.600000e+09 2.210075e-03 2.441355e-03 9.976739e-01 -1.524808e-02 9.976621e-01 -1.523311e-02 2.260034e-03 2.590746e-03
6.700000e+09 2.212941e-03 2.477754e-03 9.976670e-01 -1.547823e-02 9.976554e-01 -1.546311e-02 2.264807e-03 2.629318e-03
6.800000e+09 2.215843e-03 2.514127e-03 9.976600e-01 -1.570833e-02 9.976487e-01 -1.569308e-02 2.269644e-03 2.667860e-03
6.900000e+09 2.218781e-03 2.550474e-03 9.976529e-01 -1.593840e-02 9.976419e-01 -1.592302e-02 2.274545e-03 2.706373e-03
7.000000e+09 2.221756e-03 2.586795e-03 9.976457e-01 -1.616843e-02 9.976350e-01 -1.615292e-02 2.279509e-03 2.744855e-03
7.100000e+09 2.224767e-03 2.623089e-03 9.976384e-01 -1.639842e-02 9.976280e-01 -1.638278e-02 2.284537e-03 2.783307e-03
7.200000e+09 2.227812e-03 2.659357e-03 9.976311e-01 -1.662837e-02 9.976209e-01 -1.661261e-02 2.289627e-03 2.821728e-03
7.300000e+09 2.230893e-03 2.695598e-03 9.976236e-01 -1.685828e-02 9.976137e-01 -1.684240e-02 2.294780e-03 2.860118e-03
7.400000e+09 2.234009e-03 2.731811e-03 9.976161e-01 -1.708814e-02 9.976064e-01 -1.707216e-02 2.299996e-03 2.898477e-03
7.500000e+09 2.237160e-03 2.767997e-03 9.976084e-01 -1.731797e-02 9.975991e-01 -1.730188e-02 2.305273e-03 2.936804e-03
7.600000e+09 2.240344e-03 2.804155e-03 9.976007e-01 -1.754776e-02 9.975916e-01 -1.753156e-02 2.310612e-03 2.975099e-03
7.700000e+09 2.243563e-03 2.840285e-03 9.975929e-01 -1.777750e-02 9.975841e-01 -1.776120e-02 2.316012e-03 3.013361e-03
7.800000e+09 2.246816e-03 2.876387e-03 9.975850e-01 -1.800721e-02 9.975765e-01 -1.799081e-02 2.321473e-03 3.051591e-03
7.900000e+09 2.250102e-03 2.912459e-03 9.975770e-01 -1.823687e-02 9.975688e-01 -1.822038e-02 2.326995e-03 3.089788e-03
8.000000e+09 2.253420e-03 2.948504e-03 9.975689e-01 -1.846648e-02 9.975610e-01 -1.844990e-02 2.332576e-03 3.127951e-03
8.100000e+09 2.256772e-03 2.984518e-03 9.975607e-01 -1.869606e-02 9.975531e-01 -1.867939e-02 2.338218e-03 3.166082e-03
8.200000e+09 2.260156e-03 3.020504e-03 9.975524e-01 -1.892559e-02 9.975451e-01 -1.890884e-02 2.343919e-03 3.204178e-03
8.300000e+09 2.263573e-03 3.056460e-03 9.975441e-01 -1.915508e-02 9.975371e-01 -1.913825e-02 2.349679e-03 3.242240e-03
8.400000e+09 2.267021e-03 3.092386e-03 9.975356e-01 -1.938452e-02 9.975289e-01 -1.936762e-02 2.355498e-03 3.280268e-03
8.500000e+09 2.270501e-03 3.128282e-03 9.975271e-01 -1.961392e-02 9.975207e-01 -1.959695e-02 2.361375e-03 3.318261e-03
8.600000e+09 2.274011e-03 3.164147e-03 9.975185e-01 -1.984327e-02 9.975124e-01 -1.982624e-02 2.367311e-03 3.356219e-03
8.700000e+09 2.277553e-03 3.199982e-03 9.975098e-01 -2.007258e-02 9.975040e-01 -2.005549e-02 2.373304e-03 3.394142e-03
8.800000e+09 2.281126e-03 3.235786e-03 9.975011e-01 -2.030184e-02 9.974955e-01 -2.028470e-02 2.379354e-03 3.432030e-03
8.900000e+09 2.284728e-03 3.271559e-03 9.974922e-01 -2.053106e-02 9.974870e-01 -2.051386e-02 2.385461e-03 3.469882e-03
9.000000e+09 2.288361e-03 3.307300e-03 9.974832e-01 -2.076023e-02 9.974783e-01 -2.074298e-02 2.391625e-03 3.507697e-03
9.100000e+09 2.292023e-03 3.343011e-03 9.974742e-01 -2.098936e-02 9.974696e-01 -2.097207e-02 2.397845e-03 3.545477e-03
9.200000e+09 2.295714e-03 3.378689e-03 9.974651e-01 -2.121844e-02 9.974608e-01 -2.120110e-02 2.404121e-03 3.583220e-03
9.300000e+09 2.299434e-03 3.414336e-03 9.974559e-01 -2.144747e-02 9.974519e-01 -2.143010e-02 2.410452e-03 3.620927e-03
9.400000e+09 2.303183e-03 3.449950e-03 9.974466e-01 -2.167645e-02 9.974430e-01 -2.165905e-02 2.416838e-03 3.658597e-03
9.500000e+09 2.306960e-03 3.485532e-03 9.974373e-01 -2.190539e-02 9.974339e-01 -2.188796e-02 2.423278e-03 3.696229e-03
9.600000e+09 2.310765e-03 3.521082e-03 9.974279e-01 -2.213428e-02 9.974248e-01 -2.211683e-02 2.429773e-03 3.733824e-03
9.700000e+09 2.314598e-03 3.556599e-03 9.974183e-01 -2.236312e-02 9.974156e-01 -2.234565e-02 2.436322e-03 3.771382e-03
9.800000e+09 2.318458e-03 3.592083e-03 9.974088e-01 -2.259192e-02 9.974063e-01 -2.257443e-02 2.442924e-03 3.808901e-03
9.900000e+09 2.322344e-03 3.627534e-03 9.973991e-01 -2.282066e-02 9.973970e-01 -2.280317e-02 2.449580e-03 3.846383e-03
1.000000e+10 2.326257e-03 3.662952e-03 9.973893e-01 -2.304936e-02 9.973876e-01 -2.303186e-02 2.456288e-03 3.883827e-03
1.010000e+10 2.330197e-03 3.698336e-03 9.973795e-01 -2.327801e-02 9.973780e-01 -2.326050e-02 2.463048e-03 3.921232e-03
1.020000e+10 2.334162e-03 3.733687e-03 9.973696e-01 -2.350661e-02 9.973685e-01 -2.348910e-02 2.469860e-03 3.958598e-03
1.030000e+10 2.338153e-03 3.769004e-03 9.973596e-01 -2.373516e-02 9.973588e-01 -2.371766e-02 2.476724e-03 3.995926e-03
1.040000e+10 2.342169e-03 3.804287e-03 9.973495e-01 -2.396366e-02 9.973491e-01 -2.394617e-02 2.483638e-03 4.033215e-03
1.050000e+10 2.346210e-03 3.839535e-03 9.973394e-01 -2.419211e-02 9.973392e-01 -2.417464e-02 2.490604e-03 4.070464e-03
1.060000e+10 2.350275e-03 3.874750e-03 9.973292e-01 -2.442051e-02 9.973293e-01 -2.440306e-02 2.497619e-03 4.107674e-03
1.070000e+10 2.354364e-03 3.909930e-03 9.973189e-01 -2.464886e-02 9.973194e-01 -2.463143e-02 2.504685e-03 4.144845e-03
1.080000e+10 2.358477e-03 3.945076e-03 9.973086e-01 -2.487716e-02 9.973093e-01 -2.485976e-02 2.511800e-03 4.181976e-03
1.090000e+10 2.362614e-03 3.980187e-03 9.972981e-01 -2.510542e-02 9.972992e-01 -2.508804e-02 2.518964e-03 4.219068e-03
1.100000e+10 2.366773e-03 4.015263e-03 9.972876e-01 -2.533362e-02 9.972890e-01 -2.531628e-02 2.526177e-03 4.256119e-03
1.110000e+10 2.370955e-03 4.050304e-03 9.972770e-01 -2.556177e-02 9.972788e-01 -2.554447e-02 2.533438e-03 4.293130e-03
1.120000e+10 2.375160e-03 4.085310e-03 9.972664e-01 -2.578987e-02 9.972684e-01 -2.577261e-02 2.540747e-03 4.330101e-03
1.130000e+10 2.379386e-03 4.120281e-03 9.972557e-01 -2.601791e-02 9.972580e-01 -2.600071e-02 2.548103e-03 4.367031e-03
1.140000e+10 2.383635e-03 4.155217e-03 9.972449e-01 -2.624591e-02 9.972476e-01 -2.622876e-02 2.555507e-03 4.403921e-03
1.150000e+10 2.387904e-03 4.190117e-03 9.972340e-01 -2.647386e-02 9.972370e-01 -2.645676e-02 2.562957e-03 4.440770e-03
1.160000e+10 2.392194e-03 4.224982e-03 9.972231e-01 -2.670175e-02 9.972264e-01 -2.668472e-02 2.570453e-03 4.477578e-03
1.170000e+10 2.396505e-03 4.259810e-03 9.972121e-01 -2.692960e-02 9.972157e-01 -2.691262e-02 2.577995e-03 4.514346e-03
1.180000e+10 2.400836e-03 4.294603e-03 9.972010e-01 -2.715739e-02 9.972050e-01 -2.714048e-02 2.585582e-03 4.551072e-03
1.190000e+10 2.405187e-03 4.329361e-03 9.971899e-01 -2.738513e-02 9.971941e-01 -2.736830e-02 2.593215e-03 4.587757e-03
1.200000e+10 2.409557e-03 4.364082e-03 9.971786e-01 -2.761282e-02 9.971832e-01 -2.759606e-02 2.600892e-03 4.624401e-03
1.210000e+10 2.413947e-03 4.398767e-03 9.971674e-01 -2.784046e-02 9.971723e-01 -2.782378e-02 2.608613e-03 4.661004e-03
1.220000e+10 2.418355e-03 4.433416e-03 9.971560e-01 -2.806805e-02 9.971612e-01 -2.805145e-02 2.616378e-03 4.697565e-03
1.230000e+10 2.422781e-03 4.468029e-03 9.971446e-01 -2.829558e-02 9.971501e-01 -2.827908e-02 2.624186e-03 4.734084e-03
1.240000e+10 2.427226e-03 4.502605e-03 9.971331e-01 -2.852306e-02 9.971390e-01 -2.850665e-02 2.632038e-03 4.770562e-03
1.250000e+10 2.431688e-03 4.537145e-03 9.971216e-01 -2.875049e-02 9.971277e-01 -2.873418e-02 2.639931e-03 4.806998e-03
1.260000e+10 2.436167e-03 4.571648e-03 9.971100e-01 -2.897787e-02 9.971165e-01 -2.896166e-02 2.647867e-03 4.843392e-03
1.270000e+10 2.440664e-03 4.606115e-03 9.970983e-01 -2.920520e-02 9.971051e-01 -2.918909e-02 2.655845e-03 4.879744e-03
1.280000e+10 2.445177e-03 4.640546e-03 9.970866e-01 -2.943247e-02 9.970937e-01 -2.941647e-02 2.663864e-03 4.916054e-03
1.290000e+10 2.449706e-03 4.674939e-03 9.970748e-01 -2.965969e-02 9.970822e-01 -2.964380e-02 2.671923e-03 4.952323e-03
1.300000e+10 2.454251e-03 4.709296e-03 9.970629e-01 -2.988686e-02 9.970706e-01 -2.987109e-02 2.680024e-03 4.988549e-03
1.310000e+10 2.458811e-03 4.743616e-03 9.970510e-01 -3.011398e-02 9.970590e-01 -3.009833e-02 2.688164e-03 5.024733e-03
1.320000e+10 2.463387e-03 4.777900e-03 9.970390e-01 -3.034105e-02 9.970473e-01 -3.032552e-02 2.696344e-03 5.060874e-03
1.330000e+10 2.467977e-03 4.812146e-03 9.970270e-01 -3.056806e-02 9.970356e-01 -3.055266e-02 2.704563e-03 5.096974e-03
1.340000e+10 2.472582e-03 4.846356e-03 9.970149e-01 -3.079502e-02 9.970238e-01 -3.077975e-02 2.712821e-03 5.133031e-03
1.350000e+10 2.477201e-03 4.880528e-03 9.970027e-01 -3.102193e-02 9.970119e-01 -3.100679e-02 2.721118e-03 5.169046e-03
1.360000e+10 2.481833e-03 4.914664e-03 9.969905e-01 -3.124879e-02 9.970000e-01 -3.123379e-02 2.729452e-03 5.205018e-03
1.370000e+10 2.486479e-03 4.948763e-03 9.969782e-01 -3.147559e-02 9.969880e-01 -3.146074e-02 2.737825e-03 5.240949e-03
1.380000e+10 2.491138e-03 4.982824e-03 9.969659e-01 -3.170235e-02 9.969759e-01 -3.168763e-02 2.746234e-03 5.276836e-03
1.390000e+10 2.495809e-03 5.016849e-03 9.969535e-01 -3.192905e-02 9.969638e-01 -3.191448e-02 2.754680e-03 5.312681e-03
1.400000e+10 2.500493e-03 5.050837e-03 9.969410e-01 -3.215570e-02 9.969517e-01 -3.214129e-02 2.763163e-03 5.348484e-03
1.410000e+10 2.505188e-03 5.084787e-03 9.969285e-01 -3.238229e-02 9.969394e-01 -3.236804e-02 2.771682e-03 5.384244e-03
1.420000e+10 2.509895e-03 5.118700e-03 9.969159e-01 -3.260884e-02 9.969271e-01 -3.259474e-02 2.780236e-03 5.419962e-03
1.430000e+10 2.514613e-03 5.152577e-03 9.969033e-01 -3.283533e-02 9.969148e-01 -3.282140e-02 2.788825e-03 5.455638e-03
1.440000e+10 2.519342e-03 5.186416e-03 9.968906e-01 -3.306177e-02 9.969024e-01 -3.304801e-02 2.797450e-03 5.491270e-03
1.450000e+10 2.524082e-03 5.220218e-03 9.968779e-01 -3.328816e-02 9.968899e-01 -3.327457e-02 2.806108e-03 5.526861e-03
1.460000e+10 2.528831e-03 5.253983e-03 9.968651e-01 -3.351450e-02 9.968774e-01 -3.350108e-02 2.814801e-03 5.562409e-03
1.470000e+10 2.533590e-03 5.287711e-03 9.968522e-01 -3.374079e-02 9.968649e-01 -3.372754e-02 2.823527e-03 5.597914e-03
1.480000e+10 2.538359e-03 5.321402e-03 9.968393e-01 -3.396702e-02 9.968522e-01 -3.395396e-02 2.832287e-03 5.633377e-03
1.490000e+10 2.543137e-03 5.355056e-03 9.968264e-01 -3.419321e-02 9.968395e-01 -3.418032e-02 2.841079e-03 5.668798e-03
1.500000e+10 2.547924e-03 5.388673e-03 9.968134e-01 -3.441934e-02 9.968268e-01 -3.440664e-02 2.849904e-03 5.704176e-03
1.510000e+10 2.552718e-03 5.422253e-03 9.968003e-01 -3.464542e-02 9.968140e-01 -3.463291e-02 2.858761e-03 5.739512e-03
1.520000e+10 2.557521e-03 5.455796e-03 9.967872e-01 -3.487145e-02 9.968012e-01 -3.485914e-02 2.867649e-03 5.774806e-03
1.530000e+10 2.562332e-03 5.489302e-03 9.967740e-01 -3.509743e-02 9.967883e-01 -3.508531e-02 2.876569e-03 5.810057e-03
1.540000e+10 2.567150e-03 5.522772e-03 9.967608e-01 -3.532336e-02 9.967753e-01 -3.531144e-02 2.885520e-03 5.845266e-03
1.550000e+10 2.571975e-03 5.556204e-03 9.967475e-01 -3.554924e-02 9.967623e-01 -3.553752e-02 2.894501e-03 5.880433e-03
1.560000e+10 2.576806e-03 5.589600e-03 9.967342e-01 -3.577507e-02 9.967493e-01 -3.576355e-02 2.903512e-03 5.915558e-03
1.570000e+10 2.581644e-03 5.622959e-03 9.967209e-01 -3.600084e-02 9.967361e-01 -3.598954e-02 2.912553e-03 5.950641e-03
1.580000e+10 2.586488e-03 5.656281e-03 9.967075e-01 -3.622657e-02 9.967230e-01 -3.621547e-02 2.921624e-03 5.985682e-03
1.590000e+10 2.591337e-03 5.689567e-03 9.966940e-01 -3.645225e-02 9.967098e-01 -3.644136e-02 2.930723e-03 6.020681e-03
1.600000e+10 2.596192e-03 5.722816e-03 9.966805e-01 -3.667787e-02 9.966965e-01 -3.666720e-02 2.939851e-03 6.055638e-03
1.610000e+10 2.601051e-03 5.756028e-03 9.966669e-01 -3.690345e-02 9.966832e-01 -3.689300e-02 2.949008e-03 6.090553e-03
1.620000e+10 2.605915e-03 5.789205e-03 9.966533e-01 -3.712898e-02 9.966698e-01 -3.711875e-02 2.958192e-03 6.125426e-03
1.630000e+10 2.610784e-03 5.822344e-03 9.966397e-01 -3.735446e-02 9.966564e-01 -3.734445e-02 2.967404e-03 6.160258e-03
1.640000e+10 2.615656e-03 5.855448e-03 9.966260e-01 -3.757989e-02 9.966430e-01 -3.757011e-02 2.976642e-03 6.195048e-03
1.650000e+10 2.620533e-03 5.888515e-03 9.966123e-01 -3.780527e-02 9.966294e-01 -3.779571e-02 2.985908e-03 6.229797e-03
1.660000e+10 2.625412e-03 5.921546e-03 9.965985e-01 -3.803060e-02 9.966159e-01 -3.802128e-02 2.995200e-03 6.264505e-03
