#   Hz   S  RI   R   50
!
0.000000e+00 1.104408e-03 0.000000e+00 9.988847e-01 0.000000e+00 9.988486e-01 0.000000e+00 1.112136e-03 0.000000e+00
1.000000e+08 1.104409e-03 -4.956003e-06 9.988847e-01 -2.992252e-05 9.988486e-01 -2.973990e-05 1.112137e-03 -2.708077e-06
2.000000e+08 1.104410e-03 -9.912013e-06 9.988847e-01 -5.984502e-05 9.988486e-01 -5.947979e-05 1.112139e-03 -5.416158e-06
3.000000e+08 1.104412e-03 -1.486804e-05 9.988847e-01 -8.976750e-05 9.988486e-01 -8.921967e-05 1.112142e-03 -8.124248e-06
4.000000e+08 1.104415e-03 -1.982408e-05 9.988847e-01 -1.196900e-04 9.988486e-01 -1.189596e-04 1.112147e-03 -1.083235e-05
5.000000e+08 1.104418e-03 -2.478016e-05 9.988847e-01 -1.496124e-04 9.988486e-01 -1.486994e-04 1.112153e-03 -1.354047e-05
6.000000e+08 1.104423e-03 -2.973626e-05 9.988847e-01 -1.795347e-04 9.988486e-01 -1.784393e-04 1.112161e-03 -1.624861e-05
7.000000e+08 1.104428e-03 -3.469241e-05 9.988847e-01 -2.094570e-04 9.988486e-01 -2.081791e-04 1.112170e-03 -1.895678e-05
8.000000e+08 1.104434e-03 -3.964861e-05 9.988847e-01 -2.393792e-04 9.988486e-01 -2.379189e-04 1.112180e-03 -2.166498e-05
9.000000e+08 1.104441e-03 -4.460487e-05 9.988846e-01 -2.693013e-04 9.988486e-01 -2.676587e-04 1.112192e-03 -2.437321e-05
1.000000e+09 1.104449e-03 -4.956118e-05 9.988846e-01 -2.992233e-04 9.988486e-01 -2.973985e-04 1.112205e-03 -2.708148e-05
1.100000e+09 1.104458e-03 -5.451757e-05 9.988846e-01 -3.291452e-04 9.988485e-01 -3.271383e-04 1.112220e-03 -2.978980e-05
1.200000e+09 1.104467e-03 -5.947403e-05 9.988846e-01 -3.590669e-04 9.988485e-01 -3.568780e-04 1.112235e-03 -3.249816e-05
1.300000e+09 1.104477e-03 -6.443058e-05 9.988846e-01 -3.889886e-04 9.988485e-01 -3.866177e-04 1.112253e-03 -3.520657e-05
1.400000e+09 1.104488e-03 -6.938722e-05 9.988845e-01 -4.189100e-04 9.988485e-01 -4.163574e-04 1.112271e-03 -3.791504e-05
1.500000e+09 1.104500e-03 -7.434395e-05 9.988845e-01 -4.488313e-04 9.988485e-01 -4.460970e-04 1.112291e-03 -4.062357e-05
1.600000e+09 1.104513e-03 -7.930079e-05 9.988845e-01 -4.787525e-04 9.988485e-01 -4.758366e-04 1.112313e-03 -4.333217e-05
1.700000e+09 1.104526e-03 -8.425774e-05 9.988844e-01 -5.086734e-04 9.988485e-01 -5.055761e-04 1.112336e-03 -4.604083e-05
1.800000e+09 1.104540e-03 -8.921481e-05 9.988844e-01 -5.385942e-04 9.988485e-01 -5.353156e-04 1.112360e-03 -4.874957e-05
1.900000e+09 1.104555e-03 -9.417201e-05 9.988844e-01 -5.685148e-04 9.988484e-01 -5.650551e-04 1.112385e-03 -5.145839e-05
2.000000e+09 1.104571e-03 -9.912934e-05 9.988843e-01 -5.984351e-04 9.988484e-01 -5.947945e-04 1.112412e-03 -5.416728e-05
2.100000e+09 1.104588e-03 -1.040868e-04 9.988843e-01 -6.283552e-04 9.988484e-01 -6.245339e-04 1.112441e-03 -5.687627e-05
2.200000e+09 1.104605e-03 -1.090444e-04 9.988842e-01 -6.582751e-04 9.988484e-01 -6.542732e-04 1.112470e-03 -5.958534e-05
2.300000e+09 1.104624e-03 -1.140022e-04 9.988842e-01 -6.881947e-04 9.988484e-01 -6.840124e-04 1.112501e-03 -6.229451e-05
2.400000e+09 1.104643e-03 -1.189601e-04 9.988841e-01 -7.181141e-04 9.988484e-01 -7.137516e-04 1.112534e-03 -6.500378e-05
2.500000e+09 1.104663e-03 -1.239182e-04 9.988841e-01 -7.480332e-04 9.988483e-01 -7.434907e-04 1.112568e-03 -6.771315e-05
2.600000e+09 1.104683e-03 -1.288765e-04 9.988840e-01 -7.779520e-04 9.988483e-01 -7.732298e-04 1.112603e-03 -7.042263e-05
2.700000e+09 1.104705e-03 -1.338349e-04 9.988840e-01 -8.078705e-04 9.988483e-01 -8.029688e-04 1.112639e-03 -7.313222e-05
2.800000e+09 1.104727e-03 -1.387935e-04 9.988839e-01 -8.377887e-04 9.988483e-01 -8.327077e-04 1.112677e-03 -7.584192e-05
2.900000e+09 1.104750e-03 -1.437524e-04 9.988839e-01 -8.677066e-04 9.988483e-01 -8.624466e-04 1.112717e-03 -7.855175e-05
3.000000e+09 1.104774e-03 -1.487114e-04 9.988838e-01 -8.976242e-04 9.988482e-01 -8.921854e-04 1.112757e-03 -8.126170e-05
3.100000e+09 1.104799e-03 -1.536706e-04 9.988837e-01 -9.275414e-04 9.988482e-01 -9.219241e-04 1.112799e-03 -8.397178e-05
3.200000e+09 1.104824e-03 -1.586301e-04 9.988837e-01 -9.574583e-04 9.988482e-01 -9.516627e-04 1.112843e-03 -8.668200e-05
3.300000e+09 1.104851e-03 -1.635897e-04 9.988836e-01 -9.873748e-04 9.988481e-01 -9.814013e-04 1.112888e-03 -8.939235e-05
3.400000e+09 1.104878e-03 -1.685496e-04 9.988835e-01 -1.017291e-03 9.988481e-01 -1.011140e-03 1.112934e-03 -9.210284e-05
3.500000e+09 1.104905e-03 -1.735098e-04 9.988835e-01 -1.047207e-03 9.988481e-01 -1.040878e-03 1.112981e-03 -9.481347e-05
3.600000e+09 1.104934e-03 -1.784701e-04 9.988834e-01 -1.077122e-03 9.988481e-01 -1.070616e-03 1.113030e-03 -9.752426e-05
3.700000e+09 1.104963e-03 -1.834308e-04 9.988833e-01 -1.107037e-03 9.988480e-01 -1.100355e-03 1.113080e-03 -1.002352e-04
3.800000e+09 1.104994e-03 -1.883916e-04 9.988833e-01 -1.136951e-03 9.988480e-01 -1.130093e-03 1.113132e-03 -1.029463e-04
3.900000e+09 1.105024e-03 -1.933528e-04 9.988832e-01 -1.166866e-03 9.988480e-01 -1.159831e-03 1.113185e-03 -1.056576e-04
4.000000e+09 1.105056e-03 -1.983142e-04 9.988831e-01 -1.196779e-03 9.988479e-01 -1.189569e-03 1.113239e-03 -1.083690e-04
4.100000e+09 1.105089e-03 -2.032758e-04 9.988830e-01 -1.226692e-03 9.988479e-01 -1.219306e-03 1.113295e-03 -1.110806e-04
4.200000e+09 1.105122e-03 -2.082378e-04 9.988829e-01 -1.256605e-03 9.988479e-01 -1.249044e-03 1.113352e-03 -1.137924e-04
4.300000e+09 1.105156e-03 -2.132000e-04 9.988828e-01 -1.286517e-03 9.988478e-01 -1.278782e-03 1.113410e-03 -1.165043e-04
4.400000e+09 1.105191e-03 -2.181626e-04 9.988828e-01 -1.316429e-03 9.988478e-01 -1.308519e-03 1.113470e-03 -1.192165e-04
4.500000e+09 1.105226e-03 -2.231254e-04 9.988827e-01 -1.346341e-03 9.988478e-01 -1.338257e-03 1.113531e-03 -1.219288e-04
4.600000e+09 1.105263e-03 -2.280886e-04 9.988826e-01 -1.376251e-03 9.988477e-01 -1.367994e-03 1.113594e-03 -1.246413e-04
4.700000e+09 1.105300e-03 -2.330520e-04 9.988825e-01 -1.406162e-03 9.988477e-01 -1.397731e-03 1.113657e-03 -1.273540e-04
4.800000e+09 1.105338e-03 -2.380158e-04 9.988824e-01 -1.436071e-03 9.988476e-01 -1.427468e-03 1.113723e-03 -1.300669e-04
4.900000e+09 1.105376e-03 -2.429799e-04 9.988823e-01 -1.465981e-03 9.988476e-01 -1.457205e-03 1.113789e-03 -1.327800e-04
5.000000e+09 1.105415e-03 -2.479444e-04 9.988822e-01 -1.495889e-03 9.988476e-01 -1.486942e-03 1.113857e-03 -1.354933e-04
5.100000e+09 1.105456e-03 -2.529092e-04 9.988821e-01 -1.525798e-03 9.988475e-01 -1.516678e-03 1.113926e-03 -1.382069e-04
5.200000e+09 1.105496e-03 -2.578743e-04 9.988820e-01 -1.555705e-03 9.988475e-01 -1.546415e-03 1.113997e-03 -1.409206e-04
5.300000e+09 1.105538e-03 -2.628398e-04 9.988819e-01 -1.585612e-03 9.988474e-01 -1.576151e-03 1.114069e-03 -1.436346e-04
5.400000e+09 1.105580e-03 -2.678056e-04 9.988818e-01 -1.615519e-03 9.988474e-01 -1.605888e-03 1.114142e-03 -1.463488e-04
5.500000e+09 1.105623e-03 -2.727718e-04 9.988816e-01 -1.645424e-03 9.988473e-01 -1.635624e-03 1.114216e-03 -1.490632e-04
5.600000e+09 1.105667e-03 -2.777384e-04 9.988815e-01 -1.675330e-03 9.988473e-01 -1.665360e-03 1.114292e-03 -1.517779e-04
5.700000e+09 1.105712e-03 -2.827054e-04 9.988814e-01 -1.705234e-03 9.988472e-01 -1.695096e-03 1.114369e-03 -1.544927e-04
5.800000e+09 1.105757e-03 -2.876727e-04 9.988813e-01 -1.735138e-03 9.988472e-01 -1.724831e-03 1.114448e-03 -1.572079e-04
5.900000e+09 1.105803e-03 -2.926404e-04 9.988812e-01 -1.765041e-03 9.988471e-01 -1.754567e-03 1.114528e-03 -1.599232e-04
6.000000e+09 1.105849e-03 -2.976086e-04 9.988811e-01 -1.794944e-03 9.988471e-01 -1.784302e-03 1.114609e-03 -1.626389e-04
6.100000e+09 1.105897e-03 -3.025771e-04 9.988809e-01 -1.824846e-03 9.988470e-01 -1.814037e-03 1.114692e-03 -1.653547e-04
6.200000e+09 1.105945e-03 -3.075460e-04 9.988808e-01 -1.854747e-03 9.988470e-01 -1.843773e-03 1.114775e-03 -1.680709e-04
6.300000e+09 1.105994e-03 -3.125154e-04 9.988807e-01 -1.884648e-03 9.988469e-01 -1.873508e-03 1.114861e-03 -1.707872e-04
6.400000e+09 1.106043e-03 -3.174852e-04 9.988806e-01 -1.914548e-03 9.988469e-01 -1.903242e-03 1.114947e-03 -1.735039e-04
6.500000e+09 1.106094e-03 -3.224554e-04 9.988804e-01 -1.944447e-03 9.988468e-01 -1.932977e-03 1.115035e-03 -1.762208e-04
6.600000e+09 1.106145e-03 -3.274260e-04 9.988803e-01 -1.974346e-03 9.988468e-01 -1.962711e-03 1.115124e-03 -1.789380e-04
6.700000e+09 1.106196e-03 -3.323971e-04 9.988802e-01 -2.004244e-03 9.988467e-01 -1.992446e-03 1.115214e-03 -1.816555e-04
6.800000e+09 1.106249e-03 -3.373686e-04 9.988800e-01 -2.034141e-03 9.988467e-01 -2.022180e-03 1.115306e-03 -1.843732e-04
6.900000e+09 1.106302e-03 -3.423406e-04 9.988799e-01 -2.064037e-03 9.988466e-01 -2.051914e-03 1.115399e-03 -1.870912e-04
7.000000e+09 1.106355e-03 -3.473130e-04 9.988798e-01 -2.093933e-03 9.988465e-01 -2.081648e-03 1.115494e-03 -1.898095e-04
7.100000e+09 1.106410e-03 -3.522859e-04 9.988796e-01 -2.123828e-03 9.988465e-01 -2.111381e-03 1.115589e-03 -1.925281e-04
7.200000e+09 1.106465e-03 -3.572593e-04 9.988795e-01 -2.153722e-03 9.988464e-01 -2.141115e-03 1.115686e-03 -1.952470e-04
7.300000e+09 1.106521e-03 -3.622331e-04 9.988793e-01 -2.183616e-03 9.988464e-01 -2.170848e-03 1.115785e-03 -1.979662e-04
7.400000e+09 1.106577e-03 -3.672075e-04 9.988792e-01 -2.213508e-03 9.988463e-01 -2.200581e-03 1.115884e-03 -2.006857e-04
7.500000e+09 1.106634e-03 -3.721823e-04 9.988790e-01 -2.243400e-03 9.988462e-01 -2.230314e-03 1.115985e-03 -2.034055e-04
7.600000e+09 1.106692e-03 -3.771576e-04 9.988789e-01 -2.273291e-03 9.988462e-01 -2.260047e-03 1.116087e-03 -2.061257e-04
7.700000e+09 1.106750e-03 -3.821334e-04 9.988787e-01 -2.303181e-03 9.988461e-01 -2.289779e-03 1.116191e-03 -2.088461e-04
7.800000e+09 1.106809e-03 -3.871097e-04 9.988786e-01 -2.333070e-03 9.988460e-01 -2.319512e-03 1.116296e-03 -2.115668e-04
7.900000e+09 1.106869e-03 -3.920865e-04 9.988784e-01 -2.362959e-03 9.988460e-01 -2.349244e-03 1.116402e-03 -2.142879e-04
8.000000e+09 1.106929e-03 -3.970639e-04 9.988782e-01 -2.392847e-03 9.988459e-01 -2.378976e-03 1.116509e-03 -2.170093e-04
8.100000e+09 1.106990e-03 -4.020417e-04 9.988781e-01 -2.422734e-03 9.988458e-01 -2.408708e-03 1.116618e-03 -2.197310e-04
8.200000e+09 1.107052e-03 -4.070201e-04 9.988779e-01 -2.452620e-03 9.988458e-01 -2.438439e-03 1.116728e-03 -2.224531e-04
8.300000e+09 1.107114e-03 -4.119990e-04 9.988777e-01 -2.482505e-03 9.988457e-01 -2.468171e-03 1.116839e-03 -2.251754e-04
8.400000e+09 1.107177e-03 -4.169785e-04 9.988776e-01 -2.512389e-03 9.988456e-01 -2.497902e-03 1.116951e-03 -2.278982e-04
8.500000e+09 1.107241e-03 -4.219585e-04 9.988774e-01 -2.542272e-03 9.988455e-01 -2.527633e-03 1.117065e-03 -2.306212e-04
8.600000e+09 1.107305e-03 -4.269390e-04 9.988772e-01 -2.572155e-03 9.988455e-01 -2.557363e-03 1.117180e-03 -2.333446e-04
8.700000e+09 1.107370e-03 -4.319201e-04 9.988771e-01 -2.602036e-03 9.988454e-01 -2.587094e-03 1.117296e-03 -2.360684e-04
8.800000e+09 1.107435e-03 -4.369018e-04 9.988769e-01 -2.631917e-03 9.988453e-01 -2.616824e-03 1.117414e-03 -2.387925e-04
8.900000e+09 1.107501e-03 -4.418840e-04 9.988767e-01 -2.661797e-03 9.988452e-01 -2.646554e-03 1.117533e-03 -2.415170e-04
9.000000e+09 1.107568e-03 -4.468668e-04 9.988765e-01 -2.691676e-03 9.988451e-01 -2.676284e-03 1.117653e-03 -2.442418e-04
9.100000e+09 1.107635e-03 -4.518502e-04 9.988763e-01 -2.721554e-03 9.988451e-01 -2.706014e-03 1.117774e-03 -2.469670e-04
9.200000e+09 1.107703e-03 -4.568342e-04 9.988762e-01 -2.751431e-03 9.988450e-01 -2.735744e-03 1.117897e-03 -2.496926e-04
9.300000e+09 1.107772e-03 -4.618187e-04 9.988760e-01 -2.781307e-03 9.988449e-01 -2.765473e-03 1.118021e-03 -2.524185e-04
9.400000e+09 1.107841e-03 -4.668039e-04 9.988758e-01 -2.811182e-03 9.988448e-01 -2.795202e-03 1.118146e-03 -2.551448e-04
9.500000e+09 1.107910e-03 -4.717896e-04 9.988756e-01 -2.841056e-03 9.988447e-01 -2.824931e-03 1.118272e-03 -2.578715e-04
9.600000e+09 1.107980e-03 -4.767760e-04 9.988754e-01 -2.870929e-03 9.988447e-01 -2.854659e-03 1.118400e-03 -2.605986e-04
9.700000e+09 1.108051e-03 -4.817629e-04 9.988752e-01 -2.900801e-03 9.988446e-01 -2.884387e-03 1.118529e-03 -2.633261e-04
9.800000e+09 1.108123e-03 -4.867505e-04 9.988750e-01 -2.930672e-03 9.988445e-01 -2.914115e-03 1.118659e-03 -2.660539e-04
9.900000e+09 1.108194e-03 -4.917387e-04 9.988748e-01 -2.960542e-03 9.988444e-01 -2.943843e-03 1.118790e-03 -2.687822e-04
1.000000e+10 1.108267e-03 -4.967275e-04 9.988746e-01 -2.990412e-03 9.988443e-01 -2.973571e-03 1.118923e-03 -2.715108e-04
1.010000e+10 1.108340e-03 -5.017169e-04 9.988744e-01 -3.020280e-03 9.988442e-01 -3.003298e-03 1.119057e-03 -2.742398e-04
1.020000e+10 1.108414e-03 -5.067070e-04 9.988742e-01 -3.050147e-03 9.988441e-01 -3.033025e-03 1.119192e-03 -2.769692e-04
1.030000e+10 1.108488e-03 -5.116977e-04 9.988740e-01 -3.080013e-03 9.988440e-01 -3.062752e-03 1.119328e-03 -2.796991e-04
1.040000e+10 1.108562e-03 -5.166890e-04 9.988738e-01 -3.109878e-03 9.988439e-01 -3.092479e-03 1.119466e-03 -2.824293e-04
1.050000e+10 1.108638e-03 -5.216810e-04 9.988736e-01 -3.139742e-03 9.988438e-01 -3.122205e-03 1.119604e-03 -2.851600e-04
1.060000e+10 1.108713e-03 -5.266737e-04 9.988734e-01 -3.169605e-03 9.988437e-01 -3.151931e-03 1.119744e-03 -2.878911e-04
1.070000e+10 1.108790e-03 -5.316670e-04 9.988732e-01 -3.199467e-03 9.988436e-01 -3.181657e-03 1.119885e-03 -2.906226e-04
1.080000e+10 1.108866e-03 -5.366609e-04 9.988730e-01 -3.229328e-03 9.988435e-01 -3.211383e-03 1.120028e-03 -2.933545e-04
1.090000e+10 1.108944e-03 -5.416556e-04 9.988727e-01 -3.259188e-03 9.988434e-01 -3.241108e-03 1.120171e-03 -2.960868e-04
1.100000e+10 1.109021e-03 -5.466509e-04 9.988725e-01 -3.289046e-03 9.988433e-01 -3.270833e-03 1.120316e-03 -2.988196e-04
1.110000e+10 1.109100e-03 -5.516469e-04 9.988723e-01 -3.318904e-03 9.988432e-01 -3.300558e-03 1.120462e-03 -3.015528e-04
1.120000e+10 1.109179e-03 -5.566435e-04 9.988721e-01 -3.348760e-03 9.988431e-01 -3.330283e-03 1.120609e-03 -3.042864e-04
1.130000e+10 1.109258e-03 -5.616409e-04 9.988719e-01 -3.378616e-03 9.988430e-01 -3.360007e-03 1.120758e-03 -3.070205e-04
1.140000e+10 1.109338e-03 -5.666389e-04 9.988716e-01 -3.408470e-03 9.988429e-01 -3.389731e-03 1.120907e-03 -3.097550e-04
1.150000e+10 1.109418e-03 -5.716376e-04 9.988714e-01 -3.438323e-03 9.988428e-01 -3.419455e-03 1.121058e-03 -3.124899e-04
1.160000e+10 1.109499e-03 -5.766371e-04 9.988712e-01 -3.468175e-03 9.988427e-01 -3.449179e-03 1.121210e-03 -3.152253e-04
1.170000e+10 1.109580e-03 -5.816372e-04 9.988709e-01 -3.498026e-03 9.988426e-01 -3.478902e-03 1.121363e-03 -3.179612e-04
1.180000e+10 1.109662e-03 -5.866380e-04 9.988707e-01 -3.527876e-03 9.988425e-01 -3.508625e-03 1.121518e-03 -3.206975e-04
1.190000e+10 1.109744e-03 -5.916396e-04 9.988705e-01 -3.557725e-03 9.988424e-01 -3.538347e-03 1.121673e-03 -3.234343e-04
1.200000e+10 1.109827e-03 -5.966419e-04 9.988702e-01 -3.587573e-03 9.988423e-01 -3.568070e-03 1.121830e-03 -3.261715e-04
1.210000e+10 1.109910e-03 -6.016449e-04 9.988700e-01 -3.617419e-03 9.988422e-01 -3.597792e-03 1.121988e-03 -3.289092e-04
1.220000e+10 1.109993e-03 -6.066486e-04 9.988698e-01 -3.647264e-03 9.988421e-01 -3.627514e-03 1.122147e-03 -3.316473e-04
1.230000e+10 1.110077e-03 -6.116530e-04 9.988695e-01 -3.677108e-03 9.988419e-01 -3.657235e-03 1.122307e-03 -3.343859e-04
1.240000e+10 1.110162e-03 -6.166582e-04 9.988693e-01 -3.706951e-03 9.988418e-01 -3.686957e-03 1.122469e-03 -3.371250e-04
1.250000e+10 1.110246e-03 -6.216641e-04 9.988690e-01 -3.736793e-03 9.988417e-01 -3.716678e-03 1.122631e-03 -3.398646e-04
1.260000e+10 1.110332e-03 -6.266708e-04 9.988688e-01 -3.766633e-03 9.988416e-01 -3.746398e-03 1.122795e-03 -3.426046e-04
1.270000e+10 1.110418e-03 -6.316782e-04 9.988685e-01 -3.796473e-03 9.988415e-01 -3.776119e-03 1.122960e-03 -3.453451e-04
1.280000e+10 1.110504e-03 -6.366863e-04 9.988683e-01 -3.826311e-03 9.988413e-01 -3.805839e-03 1.123126e-03 -3.480861e-04
1.290000e+10 1.110590e-03 -6.416953e-04 9.988680e-01 -3.856148e-03 9.988412e-01 -3.835559e-03 1.123293e-03 -3.508276e-04
1.300000e+10 1.110677e-03 -6.467049e-04 9.988678e-01 -3.885984e-03 9.988411e-01 -3.865278e-03 1.123461e-03 -3.535696e-04
1.310000e+10 1.110765e-03 -6.517153e-04 9.988675e-01 -3.915818e-03 9.988410e-01 -3.894997e-03 1.123631e-03 -3.563120e-04
1.320000e+10 1.110852e-03 -6.567265e-04 9.988672e-01 -3.945652e-03 9.988408e-01 -3.924716e-03 1.123802e-03 -3.590550e-04
1.330000e+10 1.110940e-03 -6.617385e-04 9.988670e-01 -3.975484e-03 9.988407e-01 -3.954435e-03 1.123973e-03 -3.617984e-04
1.340000e+10 1.111029e-03 -6.667512e-04 9.988667e-01 -4.005315e-03 9.988406e-01 -3.984153e-03 1.124146e-03 -3.645424e-04
1.350000e+10 1.111118e-03 -6.717647e-04 9.988665e-01 -4.035144e-03 9.988405e-01 -4.013871e-03 1.124320e-03 -3.672868e-04
1.360000e+10 1.111207e-03 -6.767790e-04 9.988662e-01 -4.064973e-03 9.988403e-01 -4.043589e-03 1.124495e-03 -3.700318e-04
1.370000e+10 1.111297e-03 -6.817941e-04 9.988659e-01 -4.094800e-03 9.988402e-01 -4.073306e-03 1.124672e-03 -3.727773e-04
1.380000e+10 1.111387e-03 -6.868100e-04 9.988656e-01 -4.124626e-03 9.988401e-01 -4.103023e-03 1.124849e-03 -3.755232e-04
1.390000e+10 1.111477e-03 -6.918266e-04 9.988654e-01 -4.154451e-03 9.988399e-01 -4.132740e-03 1.125028e-03 -3.782697e-04
1.400000e+10 1.111568e-03 -6.968440e-04 9.988651e-01 -4.184274e-03 9.988398e-01 -4.162456e-03 1.125207e-03 -3.810167e-04
1.410000e+10 1.111659e-03 -7.018623e-04 9.988648e-01 -4.214096e-03 9.988397e-01 -4.192172e-03 1.125388e-03 -3.837643e-04
1.420000e+10 1.111750e-03 -7.068813e-04 9.988645e-01 -4.243917e-03 9.988395e-01 -4.221888e-03 1.125570e-03 -3.865123e-04
1.430000e+10 1.111842e-03 -7.119012e-04 9.988643e-01 -4.273737e-03 9.988394e-01 -4.251604e-03 1.125753e-03 -3.892609e-04
1.440000e+10 1.111934e-03 -7.169218e-04 9.988640e-01 -4.303555e-03 9.988392e-01 -4.281319e-03 1.125937e-03 -3.920100e-04
1.450000e+10 1.112026e-03 -7.219433e-04 9.988637e-01 -4.333372e-03 9.988391e-01 -4.311034e-03 1.126122e-03 -3.947596e-04
1.460000e+10 1.112119e-03 -7.269656e-04 9.988634e-01 -4.363188e-03 9.988390e-01 -4.340748e-03 1.126308e-03 -3.975097e-04
1.470000e+10 1.112212e-03 -7.319887e-04 9.988631e-01 -4.393003e-03 9.988388e-01 -4.370462e-03 1.126496e-03 -4.002604e-04
1.480000e+10 1.112305e-03 -7.370126e-04 9.988628e-01 -4.422816e-03 9.988387e-01 -4.400176e-03 1.126684e-03 -4.030117e-04
1.490000e+10 1.112399e-03 -7.420374e-04 9.988625e-01 -4.452628e-03 9.988385e-01 -4.429890e-03 1.126873e-03 -4.057634e-04
1.500000e+10 1.112493e-03 -7.470629e-04 9.988623e-01 -4.482439e-03 9.988384e-01 -4.459603e-03 1.127064e-03 -4.085157e-04
1.510000e+10 1.112587e-03 -7.520893e-04 9.988620e-01 -4.512248e-03 9.988382e-01 -4.489315e-03 1.127256e-03 -4.112686e-04
1.520000e+10 1.112682e-03 -7.571166e-04 9.988617e-01 -4.542056e-03 9.988381e-01 -4.519028e-03 1.127448e-03 -4.140220e-04
1.530000e+10 1.112776e-03 -7.621447e-04 9.988614e-01 -4.571863e-03 9.988379e-01 -4.548740e-03 1.127642e-03 -4.167759e-04
1.540000e+10 1.112871e-03 -7.671736e-04 9.988611e-01 -4.601668e-03 9.988378e-01 -4.578452e-03 1.127837e-03 -4.195304e-04
1.550000e+10 1.112967e-03 -7.722033e-04 9.988608e-01 -4.631472e-03 9.988376e-01 -4.608163e-03 1.128033e-03 -4.222854e-04
1.560000e+10 1.113062e-03 -7.772339e-04 9.988605e-01 -4.661275e-03 9.988375e-01 -4.637874e-03 1.128230e-03 -4.250410e-04
1.570000e+10 1.113158e-03 -7.822654e-04 9.988602e-01 -4.691076e-03 9.988373e-01 -4.667585e-03 1.128428e-03 -4.277972e-04
1.580000e+10 1.113254e-03 -7.872977e-04 9.988598e-01 -4.720876e-03 9.988371e-01 -4.697296e-03 1.128627e-03 -4.305539e-04
1.590000e+10 1.113350e-03 -7.923309e-04 9.988595e-01 -4.750675e-03 9.988370e-01 -4.727006e-03 1.128827e-03 -4.333112e-04
1.600000e+10 1.113447e-03 -7.973649e-04 9.988592e-01 -4.780472e-03 9.988368e-01 -4.756715e-03 1.129029e-03 -4.360690e-04
1.610000e+10 1.113544e-03 -8.023998e-04 9.988589e-01 -4.810269e-03 9.988367e-01 -4.786425e-03 1.129231e-03 -4.388274e-04
1.620000e+10 1.113640e-03 -8.074355e-04 9.988586e-01 -4.840063e-03 9.988365e-01 -4.816134e-03 1.129434e-03 -4.415864e-04
1.630000e+10 1.113738e-03 -8.124721e-04 9.988583e-01 -4.869857e-03 9.988363e-01 -4.845842e-03 1.129638e-03 -4.443460e-04
1.640000e+10 1.113835e-03 -8.175096e-04 9.988580e-01 -4.899649e-03 9.988362e-01 -4.875551e-03 1.129844e-03 -4.471061e-04
