#   Hz   S  RI   R   50
!
0.000000e+00 3.577420e-03 0.000000e+00 9.966474e-01 0.000000e+00 9.965470e-01 0.000000e+00 3.476121e-03 0.000000e+00
1.000000e+08 3.577497e-03 1.272605e-05 9.966470e-01 -5.953595e-04 9.965467e-01 -5.986528e-04 3.476227e-03 8.230191e-06
2.000000e+08 3.577727e-03 2.545006e-05 9.966461e-01 -1.190715e-03 9.965458e-01 -1.197302e-03 3.476545e-03 1.645767e-05
3.000000e+08 3.578110e-03 3.816998e-05 9.966446e-01 -1.786062e-03 9.965444e-01 -1.795946e-03 3.477074e-03 2.467974e-05
4.000000e+08 3.578647e-03 5.088379e-05 9.966425e-01 -2.381397e-03 9.965424e-01 -2.394579e-03 3.477816e-03 3.289368e-05
5.000000e+08 3.579336e-03 6.358943e-05 9.966398e-01 -2.976716e-03 9.965399e-01 -2.993200e-03 3.478768e-03 4.109679e-05
6.000000e+08 3.580179e-03 7.628488e-05 9.966365e-01 -3.572014e-03 9.965368e-01 -3.591804e-03 3.479933e-03 4.928636e-05
7.000000e+08 3.581175e-03 8.896810e-05 9.966326e-01 -4.167287e-03 9.965331e-01 -4.190390e-03 3.481308e-03 5.745971e-05
8.000000e+08 3.582323e-03 1.016371e-04 9.966281e-01 -4.762532e-03 9.965288e-01 -4.788953e-03 3.482895e-03 6.561413e-05
9.000000e+08 3.583624e-03 1.142897e-04 9.966229e-01 -5.357744e-03 9.965240e-01 -5.387490e-03 3.484692e-03 7.374693e-05
1.000000e+09 3.585076e-03 1.269241e-04 9.966172e-01 -5.952919e-03 9.965187e-01 -5.985999e-03 3.486699e-03 8.185542e-05
1.100000e+09 3.586681e-03 1.395381e-04 9.966109e-01 -6.548054e-03 9.965127e-01 -6.584475e-03 3.488916e-03 8.993694e-05
1.200000e+09 3.588438e-03 1.521297e-04 9.966040e-01 -7.143144e-03 9.965062e-01 -7.182917e-03 3.491343e-03 9.798880e-05
1.300000e+09 3.590346e-03 1.646970e-04 9.965964e-01 -7.738185e-03 9.964991e-01 -7.781320e-03 3.493978e-03 1.060083e-04
1.400000e+09 3.592405e-03 1.772379e-04 9.965883e-01 -8.333172e-03 9.964915e-01 -8.379682e-03 3.496822e-03 1.139929e-04
1.500000e+09 3.594614e-03 1.897504e-04 9.965796e-01 -8.928103e-03 9.964833e-01 -8.977999e-03 3.499874e-03 1.219398e-04
1.600000e+09 3.596974e-03 2.022326e-04 9.965703e-01 -9.522974e-03 9.964746e-01 -9.576268e-03 3.503134e-03 1.298465e-04
1.700000e+09 3.599483e-03 2.146823e-04 9.965604e-01 -1.011778e-02 9.964652e-01 -1.017449e-02 3.506600e-03 1.377103e-04
1.800000e+09 3.602142e-03 2.270978e-04 9.965499e-01 -1.071252e-02 9.964554e-01 -1.077265e-02 3.510273e-03 1.455285e-04
1.900000e+09 3.604950e-03 2.394769e-04 9.965388e-01 -1.130718e-02 9.964449e-01 -1.137076e-02 3.514151e-03 1.532986e-04
2.000000e+09 3.607906e-03 2.518177e-04 9.965271e-01 -1.190177e-02 9.964339e-01 -1.196881e-02 3.518233e-03 1.610180e-04
2.100000e+09 3.611010e-03 2.641182e-04 9.965148e-01 -1.249627e-02 9.964224e-01 -1.256679e-02 3.522520e-03 1.686841e-04
2.200000e+09 3.614261e-03 2.763766e-04 9.965020e-01 -1.309070e-02 9.964103e-01 -1.316471e-02 3.527010e-03 1.762943e-04
2.300000e+09 3.617659e-03 2.885908e-04 9.964885e-01 -1.368503e-02 9.963976e-01 -1.376256e-02 3.531702e-03 1.838461e-04
2.400000e+09 3.621202e-03 3.007589e-04 9.964745e-01 -1.427927e-02 9.963844e-01 -1.436033e-02 3.536595e-03 1.913369e-04
2.500000e+09 3.624891e-03 3.128790e-04 9.964599e-01 -1.487342e-02 9.963706e-01 -1.495803e-02 3.541689e-03 1.987642e-04
2.600000e+09 3.628725e-03 3.249492e-04 9.964447e-01 -1.546747e-02 9.963563e-01 -1.555566e-02 3.546983e-03 2.061254e-04
2.700000e+09 3.632703e-03 3.369675e-04 9.964289e-01 -1.606141e-02 9.963414e-01 -1.615320e-02 3.552475e-03 2.134182e-04
2.800000e+09 3.636824e-03 3.489321e-04 9.964125e-01 -1.665525e-02 9.963260e-01 -1.675065e-02 3.558165e-03 2.206399e-04
2.900000e+09 3.641088e-03 3.608412e-04 9.963955e-01 -1.724897e-02 9.963100e-01 -1.734802e-02 3.564051e-03 2.277882e-04
3.000000e+09 3.645493e-03 3.726927e-04 9.963780e-01 -1.784259e-02 9.962935e-01 -1.794530e-02 3.570133e-03 2.348605e-04
3.100000e+09 3.650040e-03 3.844849e-04 9.963599e-01 -1.843608e-02 9.962764e-01 -1.854249e-02 3.576409e-03 2.418545e-04
3.200000e+09 3.654726e-03 3.962160e-04 9.963412e-01 -1.902945e-02 9.962588e-01 -1.913958e-02 3.582878e-03 2.487678e-04
3.300000e+09 3.659552e-03 4.078840e-04 9.963220e-01 -1.962270e-02 9.962407e-01 -1.973657e-02 3.589539e-03 2.555979e-04
3.400000e+09 3.664516e-03 4.194871e-04 9.963022e-01 -2.021582e-02 9.962220e-01 -2.033346e-02 3.596390e-03 2.623425e-04
3.500000e+09 3.669618e-03 4.310237e-04 9.962818e-01 -2.080881e-02 9.962027e-01 -2.093025e-02 3.603432e-03 2.689992e-04
3.600000e+09 3.674857e-03 4.424918e-04 9.962608e-01 -2.140166e-02 9.961829e-01 -2.152693e-02 3.610661e-03 2.755658e-04
3.700000e+09 3.680231e-03 4.538896e-04 9.962393e-01 -2.199437e-02 9.961626e-01 -2.212350e-02 3.618077e-03 2.820398e-04
3.800000e+09 3.685740e-03 4.652155e-04 9.962173e-01 -2.258694e-02 9.961417e-01 -2.271996e-02 3.625678e-03 2.884191e-04
3.900000e+09 3.691382e-03 4.764677e-04 9.961946e-01 -2.317937e-02 9.961204e-01 -2.331630e-02 3.633463e-03 2.947013e-04
4.000000e+09 3.697157e-03 4.876444e-04 9.961714e-01 -2.377164e-02 9.960984e-01 -2.391252e-02 3.641431e-03 3.008842e-04
4.100000e+09 3.703064e-03 4.987438e-04 9.961477e-01 -2.436377e-02 9.960760e-01 -2.450862e-02 3.649580e-03 3.069657e-04
4.200000e+09 3.709102e-03 5.097644e-04 9.961234e-01 -2.495573e-02 9.960530e-01 -2.510460e-02 3.657909e-03 3.129434e-04
4.300000e+09 3.715269e-03 5.207044e-04 9.960986e-01 -2.554755e-02 9.960295e-01 -2.570046e-02 3.666416e-03 3.188153e-04
4.400000e+09 3.721564e-03 5.315621e-04 9.960732e-01 -2.613919e-02 9.960054e-01 -2.629618e-02 3.675099e-03 3.245791e-04
4.500000e+09 3.727987e-03 5.423360e-04 9.960472e-01 -2.673068e-02 9.959808e-01 -2.689178e-02 3.683958e-03 3.302329e-04
4.600000e+09 3.734536e-03 5.530242e-04 9.960208e-01 -2.732200e-02 9.959558e-01 -2.748724e-02 3.692989e-03 3.357744e-04
4.700000e+09 3.741210e-03 5.636253e-04 9.959937e-01 -2.791314e-02 9.959301e-01 -2.808256e-02 3.702193e-03 3.412017e-04
4.800000e+09 3.748008e-03 5.741376e-04 9.959662e-01 -2.850412e-02 9.959040e-01 -2.867775e-02 3.711566e-03 3.465126e-04
4.900000e+09 3.754928e-03 5.845596e-04 9.959381e-01 -2.909491e-02 9.958774e-01 -2.927279e-02 3.721108e-03 3.517053e-04
5.000000e+09 3.761969e-03 5.948896e-04 9.959095e-01 -2.968553e-02 9.958502e-01 -2.986770e-02 3.730817e-03 3.567776e-04
5.100000e+09 3.769131e-03 6.051261e-04 9.958803e-01 -3.027596e-02 9.958225e-01 -3.046245e-02 3.740690e-03 3.617276e-04
5.200000e+09 3.776412e-03 6.152676e-04 9.958506e-01 -3.086621e-02 9.957943e-01 -3.105706e-02 3.750726e-03 3.665535e-04
5.300000e+09 3.783810e-03 6.253126e-04 9.958204e-01 -3.145628e-02 9.957656e-01 -3.165152e-02 3.760924e-03 3.712533e-04
5.400000e+09 3.791324e-03 6.352595e-04 9.957897e-01 -3.204615e-02 9.957364e-01 -3.224583e-02 3.771281e-03 3.758251e-04
5.500000e+09 3.798953e-03 6.451070e-04 9.957585e-01 -3.263583e-02 9.957067e-01 -3.283998e-02 3.781796e-03 3.802671e-04
5.600000e+09 3.806696e-03 6.548535e-04 9.957267e-01 -3.322532e-02 9.956765e-01 -3.343398e-02 3.792467e-03 3.845775e-04
5.700000e+09 3.814551e-03 6.644977e-04 9.956945e-01 -3.381460e-02 9.956458e-01 -3.402781e-02 3.803291e-03 3.887546e-04
5.800000e+09 3.822517e-03 6.740380e-04 9.956617e-01 -3.440369e-02 9.956145e-01 -3.462149e-02 3.814268e-03 3.927965e-04
5.900000e+09 3.830592e-03 6.834732e-04 9.956284e-01 -3.499257e-02 9.955828e-01 -3.521500e-02 3.825394e-03 3.967015e-04
6.000000e+09 3.838775e-03 6.928018e-04 9.955947e-01 -3.558125e-02 9.955506e-01 -3.580834e-02 3.836669e-03 4.004680e-04
6.100000e+09 3.847065e-03 7.020225e-04 9.955604e-01 -3.616973e-02 9.955179e-01 -3.640152e-02 3.848089e-03 4.040943e-04
6.200000e+09 3.855460e-03 7.111340e-04 9.955256e-01 -3.675799e-02 9.954847e-01 -3.699453e-02 3.859654e-03 4.075788e-04
6.300000e+09 3.863959e-03 7.201350e-04 9.954903e-01 -3.734604e-02 9.954510e-01 -3.758737e-02 3.871360e-03 4.109199e-04
6.400000e+09 3.872559e-03 7.290241e-04 9.954546e-01 -3.793388e-02 9.954169e-01 -3.818004e-02 3.883207e-03 4.141160e-04
6.500000e+09 3.881261e-03 7.378001e-04 9.954183e-01 -3.852150e-02 9.953822e-01 -3.877253e-02 3.895191e-03 4.171656e-04
6.600000e+09 3.890061e-03 7.464619e-04 9.953816e-01 -3.910891e-02 9.953471e-01 -3.936484e-02 3.907311e-03 4.200673e-04
6.700000e+09 3.898959e-03 7.550080e-04 9.953444e-01 -3.969609e-02 9.953115e-01 -3.995698e-02 3.919565e-03 4.228194e-04
6.800000e+09 3.907954e-03 7.634374e-04 9.953067e-01 -4.028305e-02 9.952754e-01 -4.054893e-02 3.931950e-03 4.254208e-04
6.900000e+09 3.917043e-03 7.717489e-04 9.952685e-01 -4.086979e-02 9.952389e-01 -4.114071e-02 3.944465e-03 4.278698e-04
7.000000e+09 3.926224e-03 7.799413e-04 9.952299e-01 -4.145631e-02 9.952018e-01 -4.173230e-02 3.957107e-03 4.301652e-04
7.100000e+09 3.935497e-03 7.880135e-04 9.951908e-01 -4.204260e-02 9.951643e-01 -4.232370e-02 3.969874e-03 4.323057e-04
7.200000e+09 3.944860e-03 7.959644e-04 9.951513e-01 -4.262866e-02 9.951264e-01 -4.291492e-02 3.982764e-03 4.342899e-04
7.300000e+09 3.954311e-03 8.037929e-04 9.951112e-01 -4.321448e-02 9.950879e-01 -4.350595e-02 3.995775e-03 4.361167e-04
7.400000e+09 3.963849e-03 8.114980e-04 9.950708e-01 -4.380008e-02 9.950491e-01 -4.409678e-02 4.008905e-03 4.377847e-04
7.500000e+09 3.973472e-03 8.190786e-04 9.950298e-01 -4.438545e-02 9.950097e-01 -4.468743e-02 4.022150e-03 4.392928e-04
7.600000e+09 3.983178e-03 8.265337e-04 9.949884e-01 -4.497057e-02 9.949699e-01 -4.527789e-02 4.035510e-03 4.406398e-04
7.700000e+09 3.992965e-03 8.338623e-04 9.949466e-01 -4.555547e-02 9.949297e-01 -4.586815e-02 4.048981e-03 4.418247e-04
7.800000e+09 4.002832e-03 8.410634e-04 9.949043e-01 -4.614012e-02 9.948890e-01 -4.645821e-02 4.062562e-03 4.428463e-04
7.900000e+09 4.012778e-03 8.481362e-04 9.948616e-01 -4.672454e-02 9.948478e-01 -4.704808e-02 4.076250e-03 4.437035e-04
8.000000e+09 4.022801e-03 8.550796e-04 9.948185e-01 -4.730872e-02 9.948062e-01 -4.763775e-02 4.090043e-03 4.443955e-04
8.100000e+09 4.032898e-03 8.618929e-04 9.947749e-01 -4.789266e-02 9.947642e-01 -4.822722e-02 4.103938e-03 4.449211e-04
8.200000e+09 4.043068e-03 8.685751e-04 9.947309e-01 -4.847635e-02 9.947217e-01 -4.881648e-02 4.117934e-03 4.452795e-04
8.300000e+09 4.053310e-03 8.751254e-04 9.946864e-01 -4.905980e-02 9.946787e-01 -4.940555e-02 4.132028e-03 4.454698e-04
8.400000e+09 4.063622e-03 8.815429e-04 9.946416e-01 -4.964301e-02 9.946354e-01 -4.999442e-02 4.146218e-03 4.454911e-04
8.500000e+09 4.074002e-03 8.878270e-04 9.945963e-01 -5.022597e-02 9.945916e-01 -5.058308e-02 4.160500e-03 4.453424e-04
8.600000e+09 4.084448e-03 8.939767e-04 9.945506e-01 -5.080869e-02 9.945474e-01 -5.117153e-02 4.174874e-03 4.450232e-04
8.700000e+09 4.094958e-03 8.999915e-04 9.945045e-01 -5.139116e-02 9.945027e-01 -5.175978e-02 4.189337e-03 4.445325e-04
8.800000e+09 4.105531e-03 9.058705e-04 9.944580e-01 -5.197338e-02 9.944577e-01 -5.234782e-02 4.203886e-03 4.438697e-04
8.900000e+09 4.116166e-03 9.116130e-04 9.944110e-01 -5.255536e-02 9.944122e-01 -5.293565e-02 4.218519e-03 4.430340e-04
9.000000e+09 4.126860e-03 9.172184e-04 9.943637e-01 -5.313709e-02 9.943662e-01 -5.352328e-02 4.233233e-03 4.420249e-04
9.100000e+09 4.137611e-03 9.226861e-04 9.943160e-01 -5.371856e-02 9.943199e-01 -5.411069e-02 4.248027e-03 4.408416e-04
9.200000e+09 4.148418e-03 9.280154e-04 9.942679e-01 -5.429979e-02 9.942732e-01 -5.469790e-02 4.262898e-03 4.394837e-04
9.300000e+09 4.159278e-03 9.332057e-04 9.942194e-01 -5.488077e-02 9.942260e-01 -5.528489e-02 4.277843e-03 4.379505e-04
9.400000e+09 4.170192e-03 9.382565e-04 9.941705e-01 -5.546150e-02 9.941784e-01 -5.587167e-02 4.292860e-03 4.362415e-04
9.500000e+09 4.181155e-03 9.431672e-04 9.941212e-01 -5.604197e-02 9.941305e-01 -5.645824e-02 4.307947e-03 4.343563e-04
9.600000e+09 4.192167e-03 9.479374e-04 9.940715e-01 -5.662220e-02 9.940821e-01 -5.704460e-02 4.323102e-03 4.322944e-04
9.700000e+09 4.203226e-03 9.525664e-04 9.940215e-01 -5.720217e-02 9.940333e-01 -5.763074e-02 4.338321e-03 4.300555e-04
9.800000e+09 4.214329e-03 9.570538e-04 9.939710e-01 -5.778190e-02 9.939841e-01 -5.821667e-02 4.353603e-03 4.276391e-04
9.900000e+09 4.225476e-03 9.613992e-04 9.939203e-01 -5.836137e-02 9.939346e-01 -5.880238e-02 4.368945e-03 4.250449e-04
1.000000e+10 4.236664e-03 9.656022e-04 9.938691e-01 -5.894059e-02 9.938846e-01 -5.938788e-02 4.384345e-03 4.222726e-04
1.010000e+10 4.247892e-03 9.696624e-04 9.938176e-01 -5.951956e-02 9.938343e-01 -5.997316e-02 4.399801e-03 4.193219e-04
1.020000e+10 4.259158e-03 9.735794e-04 9.937657e-01 -6.009827e-02 9.937835e-01 -6.055823e-02 4.415310e-03 4.161926e-04
1.030000e+10 4.270459e-03 9.773529e-04 9.937135e-01 -6.067674e-02 9.937324e-01 -6.114308e-02 4.430869e-03 4.128846e-04
1.040000e+10 4.281795e-03 9.809825e-04 9.936609e-01 -6.125495e-02 9.936809e-01 -6.172771e-02 4.446477e-03 4.093976e-04
1.050000e+10 4.293163e-03 9.844679e-04 9.936079e-01 -6.183292e-02 9.936290e-01 -6.231213e-02 4.462131e-03 4.057315e-04
1.060000e+10 4.304562e-03 9.878090e-04 9.935547e-01 -6.241063e-02 9.935767e-01 -6.289633e-02 4.477829e-03 4.018863e-04
1.070000e+10 4.315989e-03 9.910053e-04 9.935010e-01 -6.298809e-02 9.935241e-01 -6.348031e-02 4.493568e-03 3.978619e-04
1.080000e+10 4.327443e-03 9.940568e-04 9.934471e-01 -6.356530e-02 9.934711e-01 -6.406407e-02 4.509346e-03 3.936582e-04
1.090000e+10 4.338922e-03 9.969632e-04 9.933928e-01 -6.414226e-02 9.934177e-01 -6.464762e-02 4.525161e-03 3.892752e-04
1.100000e+10 4.350424e-03 9.997244e-04 9.933381e-01 -6.471898e-02 9.933640e-01 -6.523095e-02 4.541010e-03 3.847131e-04
1.110000e+10 4.361948e-03 1.002340e-03 9.932831e-01 -6.529544e-02 9.933099e-01 -6.581406e-02 4.556891e-03 3.799718e-04
1.120000e+10 4.373492e-03 1.004810e-03 9.932278e-01 -6.587166e-02 9.932554e-01 -6.639696e-02 4.572801e-03 3.750515e-04
1.130000e+10 4.385053e-03 1.007135e-03 9.931722e-01 -6.644763e-02 9.932006e-01 -6.697963e-02 4.588739e-03 3.699524e-04
1.140000e+10 4.396631e-03 1.009314e-03 9.931163e-01 -6.702335e-02 9.931454e-01 -6.756209e-02 4.604702e-03 3.646746e-04
1.150000e+10 4.408222e-03 1.011347e-03 9.930600e-01 -6.759883e-02 9.930898e-01 -6.814433e-02 4.620688e-03 3.592182e-04
1.160000e+10 4.419827e-03 1.013235e-03 9.930034e-01 -6.817407e-02 9.930339e-01 -6.872636e-02 4.636694e-03 3.535837e-04
1.170000e+10 4.431441e-03 1.014976e-03 9.929465e-01 -6.874905e-02 9.929777e-01 -6.930816e-02 4.652719e-03 3.477712e-04
1.180000e+10 4.443065e-03 1.016572e-03 9.928893e-01 -6.932380e-02 9.929211e-01 -6.988975e-02 4.668759e-03 3.417810e-04
1.190000e+10 4.454696e-03 1.018023e-03 9.928318e-01 -6.989830e-02 9.928642e-01 -7.047113e-02 4.684813e-03 3.356135e-04
1.200000e+10 4.466332e-03 1.019327e-03 9.927740e-01 -7.047256e-02 9.928069e-01 -7.105229e-02 4.700879e-03 3.292690e-04
1.210000e+10 4.477972e-03 1.020486e-03 9.927159e-01 -7.104658e-02 9.927493e-01 -7.163323e-02 4.716954e-03 3.227480e-04
1.220000e+10 4.489613e-03 1.021500e-03 9.926575e-01 -7.162037e-02 9.926914e-01 -7.221395e-02 4.733036e-03 3.160508e-04
1.230000e+10 4.501255e-03 1.022368e-03 9.925988e-01 -7.219391e-02 9.926331e-01 -7.279447e-02 4.749122e-03 3.091780e-04
1.240000e+10 4.512894e-03 1.023092e-03 9.925398e-01 -7.276722e-02 9.925745e-01 -7.337476e-02 4.765212e-03 3.021299e-04
1.250000e+10 4.524531e-03 1.023670e-03 9.924806e-01 -7.334029e-02 9.925156e-01 -7.395484e-02 4.781301e-03 2.949073e-04
1.260000e+10 4.536162e-03 1.024104e-03 9.924210e-01 -7.391312e-02 9.924563e-01 -7.453471e-02 4.797389e-03 2.875105e-04
1.270000e+10 4.547786e-03 1.024393e-03 9.923612e-01 -7.448572e-02 9.923967e-01 -7.511437e-02 4.813473e-03 2.799402e-04
1.280000e+10 4.559401e-03 1.024538e-03 9.923011e-01 -7.505810e-02 9.923368e-01 -7.569381e-02 4.829552e-03 2.721969e-04
1.290000e+10 4.571006e-03 1.024539e-03 9.922407e-01 -7.563024e-02 9.922766e-01 -7.627305e-02 4.845622e-03 2.642814e-04
1.300000e+10 4.582599e-03 1.024396e-03 9.921800e-01 -7.620215e-02 9.922161e-01 -7.685207e-02 4.861681e-03 2.561943e-04
1.310000e+10 4.594179e-03 1.024110e-03 9.921190e-01 -7.677383e-02 9.921552e-01 -7.743088e-02 4.877729e-03 2.479362e-04
1.320000e+10 4.605742e-03 1.023681e-03 9.920578e-01 -7.734529e-02 9.920941e-01 -7.800948e-02 4.893762e-03 2.395080e-04
1.330000e+10 4.617289e-03 1.023109e-03 9.919964e-01 -7.791652e-02 9.920326e-01 -7.858787e-02 4.909779e-03 2.309102e-04
1.340000e+10 4.628816e-03 1.022396e-03 9.919346e-01 -7.848753e-02 9.919708e-01 -7.916605e-02 4.925777e-03 2.221438e-04
1.350000e+10 4.640323e-03 1.021540e-03 9.918726e-01 -7.905831e-02 9.919087e-01 -7.974403e-02 4.941755e-03 2.132096e-04
1.360000e+10 4.651808e-03 1.020543e-03 9.918104e-01 -7.962888e-02 9.918463e-01 -8.032180e-02 4.957710e-03 2.041082e-04
1.370000e+10 4.663269e-03 1.019404e-03 9.917478e-01 -8.019923e-02 9.917837e-01 -8.089936e-02 4.973641e-03 1.948407e-04
1.380000e+10 4.674704e-03 1.018126e-03 9.916851e-01 -8.076936e-02 9.917207e-01 -8.147672e-02 4.989546e-03 1.854079e-04
1.390000e+10 4.686112e-03 1.016707e-03 9.916221e-01 -8.133928e-02 9.916574e-01 -8.205387e-02 5.005422e-03 1.758106e-04
1.400000e+10 4.697492e-03 1.015149e-03 9.915588e-01 -8.190898e-02 9.915938e-01 -8.263082e-02 5.021267e-03 1.660499e-04
1.410000e+10 4.708841e-03 1.013452e-03 9.914953e-01 -8.247847e-02 9.915299e-01 -8.320757e-02 5.037081e-03 1.561266e-04
1.420000e+10 4.720159e-03 1.011616e-03 9.914315e-01 -8.304776e-02 9.914658e-01 -8.378412e-02 5.052861e-03 1.460418e-04
1.430000e+10 4.731442e-03 1.009643e-03 9.913675e-01 -8.361683e-02 9.914013e-01 -8.436047e-02 5.068604e-03 1.357964e-04
1.440000e+10 4.742691e-03 1.007532e-03 9.913033e-01 -8.418570e-02 9.913366e-01 -8.493662e-02 5.084310e-03 1.253916e-04
1.450000e+10 4.753903e-03 1.005284e-03 9.912388e-01 -8.475437e-02 9.912716e-01 -8.551258e-02 5.099977e-03 1.148282e-04
1.460000e+10 4.765077e-03 1.002901e-03 9.911741e-01 -8.532283e-02 9.912063e-01 -8.608833e-02 5.115602e-03 1.041074e-04
1.470000e+10 4.776211e-03 1.000382e-03 9.911091e-01 -8.589109e-02 9.911407e-01 -8.666389e-02 5.131183e-03 9.323034e-05
1.480000e+10 4.787304e-03 9.977284e-04 9.910439e-01 -8.645916e-02 9.910749e-01 -8.723926e-02 5.146720e-03 8.219805e-05
1.490000e+10 4.798354e-03 9.949406e-04 9.909785e-01 -8.702703e-02 9.910087e-01 -8.781443e-02 5.162211e-03 7.101170e-05
1.500000e+10 4.809360e-03 9.920195e-04 9.909129e-01 -8.759470e-02 9.909423e-01 -8.838941e-02 5.177652e-03 5.967244e-05
1.510000e+10 4.820320e-03 9.889658e-04 9.908470e-01 -8.816218e-02 9.908756e-01 -8.896420e-02 5.193044e-03 4.818144e-05
1.520000e+10 4.831233e-03 9.857801e-04 9.907809e-01 -8.872948e-02 9.908087e-01 -8.953880e-02 5.208384e-03 3.653990e-05
1.530000e+10 4.842097e-03 9.824632e-04 9.907146e-01 -8.929658e-02 9.907415e-01 -9.011322e-02 5.223671e-03 2.474904e-05
1.540000e+10 4.852911e-03 9.790159e-04 9.906481e-01 -8.986350e-02 9.906740e-01 -9.068744e-02 5.238903e-03 1.281009e-05
1.550000e+10 4.863674e-03 9.754390e-04 9.905813e-01 -9.043024e-02 9.906062e-01 -9.126148e-02 5.254078e-03 7.243002e-07
1.560000e+10 4.874383e-03 9.717332e-04 9.905144e-01 -9.099679e-02 9.905382e-01 -9.183534e-02 5.269195e-03 -1.150705e-05
1.570000e+10 4.885038e-03 9.678995e-04 9.904472e-01 -9.156317e-02 9.904699e-01 -9.240901e-02 5.284252e-03 -2.388268e-05
1.580000e+10 4.895638e-03 9.639385e-04 9.903798e-01 -9.212936e-02 9.904014e-01 -9.298251e-02 5.299248e-03 -3.640127e-05
1.590000e+10 4.906180e-03 9.598513e-04 9.903122e-01 -9.269539e-02 9.903326e-01 -9.355582e-02 5.314182e-03 -4.906151e-05
1.600000e+10 4.916664e-03 9.556385e-04 9.902444e-01 -9.326124e-02 9.902636e-01 -9.412895e-02 5.329051e-03 -6.186205e-05
1.610000e+10 4.927088e-03 9.513012e-04 9.901763e-01 -9.382692e-02 9.901943e-01 -9.470191e-02 5.343854e-03 -7.480155e-05
1.620000e+10 4.937451e-03 9.468401e-04 9.901081e-01 -9.439243e-02 9.901247e-01 -9.527469e-02 5.358591e-03 -8.787861e-05
1.630000e+10 4.947752e-03 9.422562e-04 9.900397e-01 -9.495778e-02 9.900549e-01 -9.584730e-02 5.373258e-03 -1.010919e-04
1.640000e+10 4.957988e-03 9.375505e-04 9.899710e-01 -9.552296e-02 9.899848e-01 -9.641973e-02 5.387856e-03 -1.144399e-04
1.650000e+10 4.968160e-03 9.327239e-04 9.899021e-01 -9.608798e-02 9.899145e-01 -9.699200e-02 5.402383e-03 -1.279213e-04
1.660000e+10 4.978266e-03 9.277772e-04 9.898331e-01 -9.665284e-02 9.898439e-01 -9.756409e-02 5.416838e-03 -1.415347e-04
