#   Hz   S  RI   R   50
!
0.000000e+00 2.112537e-03 0.000000e+00 9.978885e-01 0.000000e+00 9.978907e-01 0.000000e+00 2.125325e-03 0.000000e+00
1.000000e+08 2.112562e-03 3.490980e-05 9.978885e-01 -2.397331e-04 9.978907e-01 -2.397333e-04 2.125363e-03 3.638877e-05
2.000000e+08 2.112636e-03 6.981913e-05 9.978883e-01 -4.794655e-04 9.978905e-01 -4.794660e-04 2.125477e-03 7.277704e-05
3.000000e+08 2.112760e-03 1.047275e-04 9.978880e-01 -7.191965e-04 9.978902e-01 -7.191974e-04 2.125667e-03 1.091643e-04
4.000000e+08 2.112933e-03 1.396344e-04 9.978876e-01 -9.589256e-04 9.978898e-01 -9.589268e-04 2.125933e-03 1.455501e-04
5.000000e+08 2.113155e-03 1.745395e-04 9.978871e-01 -1.198652e-03 9.978893e-01 -1.198654e-03 2.126274e-03 1.819340e-04
6.000000e+08 2.113427e-03 2.094421e-04 9.978864e-01 -1.438375e-03 9.978887e-01 -1.438377e-03 2.126692e-03 2.183153e-04
7.000000e+08 2.113749e-03 2.443419e-04 9.978857e-01 -1.678094e-03 9.978879e-01 -1.678097e-03 2.127186e-03 2.546937e-04
8.000000e+08 2.114119e-03 2.792384e-04 9.978848e-01 -1.917809e-03 9.978871e-01 -1.917812e-03 2.127756e-03 2.910686e-04
9.000000e+08 2.114539e-03 3.141311e-04 9.978839e-01 -2.157518e-03 9.978861e-01 -2.157521e-03 2.128401e-03 3.274396e-04
1.000000e+09 2.115009e-03 3.490194e-04 9.978828e-01 -2.397222e-03 9.978850e-01 -2.397225e-03 2.129122e-03 3.638061e-04
1.100000e+09 2.115527e-03 3.839031e-04 9.978816e-01 -2.636919e-03 9.978838e-01 -2.636922e-03 2.129919e-03 4.001677e-04
1.200000e+09 2.116095e-03 4.187814e-04 9.978803e-01 -2.876608e-03 9.978825e-01 -2.876612e-03 2.130792e-03 4.365238e-04
1.300000e+09 2.116712e-03 4.536541e-04 9.978789e-01 -3.116290e-03 9.978811e-01 -3.116294e-03 2.131740e-03 4.728741e-04
1.400000e+09 2.117378e-03 4.885206e-04 9.978773e-01 -3.355963e-03 9.978796e-01 -3.355968e-03 2.132764e-03 5.092179e-04
1.500000e+09 2.118092e-03 5.233805e-04 9.978757e-01 -3.595627e-03 9.978779e-01 -3.595632e-03 2.133863e-03 5.455548e-04
1.600000e+09 2.118856e-03 5.582333e-04 9.978739e-01 -3.835281e-03 9.978762e-01 -3.835287e-03 2.135038e-03 5.818844e-04
1.700000e+09 2.119668e-03 5.930785e-04 9.978720e-01 -4.074925e-03 9.978743e-01 -4.074931e-03 2.136288e-03 6.182061e-04
1.800000e+09 2.120529e-03 6.279156e-04 9.978700e-01 -4.314557e-03 9.978723e-01 -4.314564e-03 2.137613e-03 6.545194e-04
1.900000e+09 2.121439e-03 6.627442e-04 9.978679e-01 -4.554178e-03 9.978702e-01 -4.554185e-03 2.139013e-03 6.908239e-04
2.000000e+09 2.122397e-03 6.975639e-04 9.978657e-01 -4.793786e-03 9.978680e-01 -4.793794e-03 2.140489e-03 7.271190e-04
2.100000e+09 2.123404e-03 7.323741e-04 9.978633e-01 -5.033381e-03 9.978656e-01 -5.033390e-03 2.142039e-03 7.634044e-04
2.200000e+09 2.124459e-03 7.671744e-04 9.978609e-01 -5.272963e-03 9.978632e-01 -5.272972e-03 2.143664e-03 7.996795e-04
2.300000e+09 2.125562e-03 8.019643e-04 9.978583e-01 -5.512530e-03 9.978607e-01 -5.512540e-03 2.145363e-03 8.359438e-04
2.400000e+09 2.126713e-03 8.367434e-04 9.978557e-01 -5.752082e-03 9.978580e-01 -5.752093e-03 2.147138e-03 8.721968e-04
2.500000e+09 2.127912e-03 8.715113e-04 9.978529e-01 -5.991619e-03 9.978552e-01 -5.991631e-03 2.148986e-03 9.084382e-04
2.600000e+09 2.129159e-03 9.062674e-04 9.978500e-01 -6.231139e-03 9.978523e-01 -6.231152e-03 2.150909e-03 9.446674e-04
2.700000e+09 2.130453e-03 9.410113e-04 9.978470e-01 -6.470642e-03 9.978493e-01 -6.470656e-03 2.152906e-03 9.808839e-04
2.800000e+09 2.131795e-03 9.757426e-04 9.978439e-01 -6.710128e-03 9.978462e-01 -6.710144e-03 2.154978e-03 1.017087e-03
2.900000e+09 2.133185e-03 1.010461e-03 9.978406e-01 -6.949596e-03 9.978430e-01 -6.949612e-03 2.157123e-03 1.053277e-03
3.000000e+09 2.134621e-03 1.045165e-03 9.978373e-01 -7.189046e-03 9.978397e-01 -7.189063e-03 2.159341e-03 1.089453e-03
3.100000e+09 2.136105e-03 1.079856e-03 9.978338e-01 -7.428476e-03 9.978362e-01 -7.428494e-03 2.161634e-03 1.125614e-03
3.200000e+09 2.137636e-03 1.114532e-03 9.978303e-01 -7.667885e-03 9.978327e-01 -7.667905e-03 2.163999e-03 1.161760e-03
3.300000e+09 2.139213e-03 1.149194e-03 9.978266e-01 -7.907275e-03 9.978290e-01 -7.907296e-03 2.166438e-03 1.197891e-03
3.400000e+09 2.140837e-03 1.183840e-03 9.978228e-01 -8.146643e-03 9.978252e-01 -8.146665e-03 2.168950e-03 1.234006e-03
3.500000e+09 2.142507e-03 1.218470e-03 9.978189e-01 -8.385990e-03 9.978213e-01 -8.386013e-03 2.171535e-03 1.270104e-03
3.600000e+09 2.144223e-03 1.253084e-03 9.978149e-01 -8.625314e-03 9.978173e-01 -8.625339e-03 2.174193e-03 1.306186e-03
3.700000e+09 2.145986e-03 1.287682e-03 9.978108e-01 -8.864615e-03 9.978132e-01 -8.864642e-03 2.176923e-03 1.342250e-03
3.800000e+09 2.147794e-03 1.322262e-03 9.978066e-01 -9.103893e-03 9.978090e-01 -9.103921e-03 2.179725e-03 1.378297e-03
3.900000e+09 2.149648e-03 1.356825e-03 9.978022e-01 -9.343146e-03 9.978047e-01 -9.343176e-03 2.182600e-03 1.414325e-03
4.000000e+09 2.151547e-03 1.391370e-03 9.977978e-01 -9.582375e-03 9.978003e-01 -9.582407e-03 2.185546e-03 1.450335e-03
4.100000e+09 2.153492e-03 1.425897e-03 9.977932e-01 -9.821579e-03 9.977957e-01 -9.821612e-03 2.188564e-03 1.486326e-03
4.200000e+09 2.155481e-03 1.460405e-03 9.977886e-01 -1.006076e-02 9.977911e-01 -1.006079e-02 2.191654e-03 1.522297e-03
4.300000e+09 2.157516e-03 1.494894e-03 9.977838e-01 -1.029991e-02 9.977863e-01 -1.029994e-02 2.194815e-03 1.558249e-03
4.400000e+09 2.159595e-03 1.529363e-03 9.977789e-01 -1.053903e-02 9.977815e-01 -1.053907e-02 2.198047e-03 1.594180e-03
4.500000e+09 2.161718e-03 1.563812e-03 9.977740e-01 -1.077813e-02 9.977765e-01 -1.077817e-02 2.201350e-03 1.630090e-03
4.600000e+09 2.163885e-03 1.598241e-03 9.977689e-01 -1.101720e-02 9.977714e-01 -1.101724e-02 2.204723e-03 1.665979e-03
4.700000e+09 2.166097e-03 1.632649e-03 9.977637e-01 -1.125624e-02 9.977663e-01 -1.125628e-02 2.208167e-03 1.701846e-03
4.800000e+09 2.168352e-03 1.667036e-03 9.977584e-01 -1.149525e-02 9.977610e-01 -1.149530e-02 2.211681e-03 1.737692e-03
4.900000e+09 2.170650e-03 1.701402e-03 9.977530e-01 -1.173423e-02 9.977556e-01 -1.173428e-02 2.215265e-03 1.773514e-03
5.000000e+09 2.172992e-03 1.735745e-03 9.977474e-01 -1.197318e-02 9.977501e-01 -1.197323e-02 2.218919e-03 1.809314e-03
5.100000e+09 2.175376e-03 1.770066e-03 9.977418e-01 -1.221210e-02 9.977445e-01 -1.221216e-02 2.222642e-03 1.845091e-03
5.200000e+09 2.177803e-03 1.804364e-03 9.977361e-01 -1.245099e-02 9.977388e-01 -1.245105e-02 2.226434e-03 1.880844e-03
5.300000e+09 2.180273e-03 1.838639e-03 9.977303e-01 -1.268984e-02 9.977330e-01 -1.268991e-02 2.230295e-03 1.916573e-03
5.400000e+09 2.182784e-03 1.872890e-03 9.977243e-01 -1.292867e-02 9.977271e-01 -1.292873e-02 2.234224e-03 1.952277e-03
5.500000e+09 2.185338e-03 1.907118e-03 9.977183e-01 -1.316746e-02 9.977210e-01 -1.316753e-02 2.238222e-03 1.987956e-03
5.600000e+09 2.187933e-03 1.941321e-03 9.977122e-01 -1.340622e-02 9.977149e-01 -1.340629e-02 2.242288e-03 2.023610e-03
5.700000e+09 2.190570e-03 1.975500e-03 9.977059e-01 -1.364494e-02 9.977087e-01 -1.364501e-02 2.246422e-03 2.059239e-03
5.800000e+09 2.193247e-03 2.009653e-03 9.976996e-01 -1.388363e-02 9.977024e-01 -1.388371e-02 2.250623e-03 2.094841e-03
5.900000e+09 2.195965e-03 2.043781e-03 9.976931e-01 -1.412228e-02 9.976959e-01 -1.412237e-02 2.254891e-03 2.130417e-03
6.000000e+09 2.198724e-03 2.077883e-03 9.976866e-01 -1.436090e-02 9.976894e-01 -1.436099e-02 2.259227e-03 2.165966e-03
6.100000e+09 2.201523e-03 2.111959e-03 9.976799e-01 -1.459949e-02 9.976828e-01 -1.459957e-02 2.263629e-03 2.201487e-03
6.200000e+09 2.204362e-03 2.146009e-03 9.976732e-01 -1.483803e-02 9.976761e-01 -1.483812e-02 2.268097e-03 2.236981e-03
6.300000e+09 2.207241e-03 2.180032e-03 9.976663e-01 -1.507654e-02 9.976692e-01 -1.507664e-02 2.272632e-03 2.272448e-03
6.400000e+09 2.210158e-03 2.214027e-03 9.976594e-01 -1.531502e-02 9.976623e-01 -1.531511e-02 2.277232e-03 2.307885e-03
6.500000e+09 2.213115e-03 2.247995e-03 9.976523e-01 -1.555345e-02 9.976553e-01 -1.555355e-02 2.281898e-03 2.343294e-03
6.600000e+09 2.216111e-03 2.281936e-03 9.976452e-01 -1.579185e-02 9.976481e-01 -1.579195e-02 2.286629e-03 2.378674e-03
6.700000e+09 2.219145e-03 2.315848e-03 9.976379e-01 -1.603020e-02 9.976409e-01 -1.603032e-02 2.291424e-03 2.414025e-03
6.800000e+09 2.222216e-03 2.349731e-03 9.976306e-01 -1.626852e-02 9.976336e-01 -1.626864e-02 2.296284e-03 2.449346e-03
6.900000e+09 2.225326e-03 2.383586e-03 9.976231e-01 -1.650680e-02 9.976261e-01 -1.650692e-02 2.301209e-03 2.484636e-03
7.000000e+09 2.228473e-03 2.417411e-03 9.976156e-01 -1.674504e-02 9.976186e-01 -1.674517e-02 2.306197e-03 2.519896e-03
7.100000e+09 2.231657e-03 2.451207e-03 9.976079e-01 -1.698324e-02 9.976110e-01 -1.698337e-02 2.311248e-03 2.555126e-03
7.200000e+09 2.234878e-03 2.484973e-03 9.976002e-01 -1.722140e-02 9.976033e-01 -1.722153e-02 2.316363e-03 2.590324e-03
7.300000e+09 2.238135e-03 2.518709e-03 9.975924e-01 -1.745951e-02 9.975955e-01 -1.745965e-02 2.321541e-03 2.625491e-03
7.400000e+09 2.241429e-03 2.552414e-03 9.975844e-01 -1.769759e-02 9.975876e-01 -1.769773e-02 2.326781e-03 2.660626e-03
7.500000e+09 2.244758e-03 2.586089e-03 9.975764e-01 -1.793562e-02 9.975796e-01 -1.793577e-02 2.332084e-03 2.695729e-03
7.600000e+09 2.248123e-03 2.619733e-03 9.975683e-01 -1.817361e-02 9.975715e-01 -1.817377e-02 2.337448e-03 2.730799e-03
7.700000e+09 2.251522e-03 2.653345e-03 9.975601e-01 -1.841156e-02 9.975633e-01 -1.841172e-02 2.342874e-03 2.765837e-03
7.800000e+09 2.254957e-03 2.686926e-03 9.975517e-01 -1.864946e-02 9.975550e-01 -1.864963e-02 2.348360e-03 2.800842e-03
7.900000e+09 2.258425e-03 2.720475e-03 9.975433e-01 -1.888732e-02 9.975466e-01 -1.888750e-02 2.353908e-03 2.835813e-03
8.000000e+09 2.261928e-03 2.753991e-03 9.975348e-01 -1.912514e-02 9.975381e-01 -1.912532e-02 2.359516e-03 2.870751e-03
8.100000e+09 2.265465e-03 2.787475e-03 9.975263e-01 -1.936291e-02 9.975296e-01 -1.936310e-02 2.365184e-03 2.905654e-03
8.200000e+09 2.269034e-03 2.820927e-03 9.975176e-01 -1.960064e-02 9.975209e-01 -1.960083e-02 2.370912e-03 2.940524e-03
8.300000e+09 2.272637e-03 2.854345e-03 9.975088e-01 -1.983832e-02 9.975122e-01 -1.983852e-02 2.376699e-03 2.975359e-03
8.400000e+09 2.276272e-03 2.887730e-03 9.974999e-01 -2.007596e-02 9.975033e-01 -2.007616e-02 2.382546e-03 3.010159e-03
8.500000e+09 2.279940e-03 2.921082e-03 9.974910e-01 -2.031355e-02 9.974944e-01 -2.031376e-02 2.388451e-03 3.044924e-03
8.600000e+09 2.283639e-03 2.954400e-03 9.974819e-01 -2.055110e-02 9.974854e-01 -2.055131e-02 2.394414e-03 3.079654e-03
8.700000e+09 2.287370e-03 2.987683e-03 9.974728e-01 -2.078860e-02 9.974763e-01 -2.078882e-02 2.400435e-03 3.114348e-03
8.800000e+09 2.291132e-03 3.020933e-03 9.974636e-01 -2.102605e-02 9.974671e-01 -2.102628e-02 2.406513e-03 3.149006e-03
8.900000e+09 2.294924e-03 3.054148e-03 9.974543e-01 -2.126345e-02 9.974578e-01 -2.126369e-02 2.412649e-03 3.183628e-03
9.000000e+09 2.298747e-03 3.087328e-03 9.974449e-01 -2.150081e-02 9.974484e-01 -2.150106e-02 2.418841e-03 3.218214e-03
9.100000e+09 2.302600e-03 3.120473e-03 9.974354e-01 -2.173812e-02 9.974390e-01 -2.173838e-02 2.425089e-03 3.252763e-03
9.200000e+09 2.306483e-03 3.153583e-03 9.974258e-01 -2.197539e-02 9.974294e-01 -2.197565e-02 2.431394e-03 3.287275e-03
9.300000e+09 2.310395e-03 3.186658e-03 9.974161e-01 -2.221260e-02 9.974198e-01 -2.221287e-02 2.437754e-03 3.321750e-03
9.400000e+09 2.314336e-03 3.219697e-03 9.974064e-01 -2.244977e-02 9.974101e-01 -2.245004e-02 2.444170e-03 3.356187e-03
9.500000e+09 2.318305e-03 3.252700e-03 9.973966e-01 -2.268688e-02 9.974003e-01 -2.268717e-02 2.450640e-03 3.390587e-03
9.600000e+09 2.322302e-03 3.285667e-03 9.973866e-01 -2.292395e-02 9.973904e-01 -2.292424e-02 2.457165e-03 3.424949e-03
9.700000e+09 2.326327e-03 3.318597e-03 9.973766e-01 -2.316097e-02 9.973804e-01 -2.316127e-02 2.463743e-03 3.459273e-03
9.800000e+09 2.330379e-03 3.351492e-03 9.973665e-01 -2.339794e-02 9.973703e-01 -2.339825e-02 2.470376e-03 3.493559e-03
9.900000e+09 2.334458e-03 3.384349e-03 9.973564e-01 -2.363486e-02 9.973602e-01 -2.363518e-02 2.477061e-03 3.527806e-03
1.000000e+10 2.338563e-03 3.417170e-03 9.973461e-01 -2.387173e-02 9.973500e-01 -2.387206e-02 2.483800e-03 3.562015e-03
1.010000e+10 2.342695e-03 3.449954e-03 9.973358e-01 -2.410855e-02 9.973397e-01 -2.410889e-02 2.490590e-03 3.596185e-03
1.020000e+10 2.346852e-03 3.482700e-03 9.973254e-01 -2.434532e-02 9.973293e-01 -2.434566e-02 2.497433e-03 3.630315e-03
1.030000e+10 2.351035e-03 3.515409e-03 9.973149e-01 -2.458204e-02 9.973188e-01 -2.458239e-02 2.504328e-03 3.664406e-03
1.040000e+10 2.355242e-03 3.548081e-03 9.973043e-01 -2.481871e-02 9.973083e-01 -2.481907e-02 2.511274e-03 3.698458e-03
1.050000e+10 2.359474e-03 3.580714e-03 9.972936e-01 -2.505533e-02 9.972976e-01 -2.505570e-02 2.518270e-03 3.732470e-03
1.060000e+10 2.363730e-03 3.613310e-03 9.972829e-01 -2.529189e-02 9.972869e-01 -2.529227e-02 2.525317e-03 3.766443e-03
1.070000e+10 2.368010e-03 3.645868e-03 9.972721e-01 -2.552841e-02 9.972762e-01 -2.552880e-02 2.532414e-03 3.800375e-03
1.080000e+10 2.372313e-03 3.678388e-03 9.972612e-01 -2.576487e-02 9.972653e-01 -2.576527e-02 2.539561e-03 3.834267e-03
1.090000e+10 2.376639e-03 3.710869e-03 9.972502e-01 -2.600128e-02 9.972543e-01 -2.600169e-02 2.546757e-03 3.868119e-03
1.100000e+10 2.380988e-03 3.743312e-03 9.972392e-01 -2.623764e-02 9.972433e-01 -2.623806e-02 2.554001e-03 3.901930e-03
1.110000e+10 2.385358e-03 3.775716e-03 9.972280e-01 -2.647395e-02 9.972322e-01 -2.647438e-02 2.561294e-03 3.935701e-03
1.120000e+10 2.389750e-03 3.808082e-03 9.972168e-01 -2.671021e-02 9.972211e-01 -2.671065e-02 2.568635e-03 3.969430e-03
1.130000e+10 2.394164e-03 3.840409e-03 9.972055e-01 -2.694641e-02 9.972098e-01 -2.694686e-02 2.576024e-03 4.003119e-03
1.140000e+10 2.398598e-03 3.872696e-03 9.971942e-01 -2.718256e-02 9.971985e-01 -2.718302e-02 2.583460e-03 4.036767e-03
1.150000e+10 2.403053e-03 3.904945e-03 9.971828e-01 -2.741866e-02 9.971871e-01 -2.741913e-02 2.590942e-03 4.070373e-03
1.160000e+10 2.407528e-03 3.937155e-03 9.971713e-01 -2.765471e-02 9.971756e-01 -2.765519e-02 2.598471e-03 4.103938e-03
1.170000e+10 2.412022e-03 3.969325e-03 9.971597e-01 -2.789070e-02 9.971641e-01 -2.789119e-02 2.606046e-03 4.137462e-03
1.180000e+10 2.416536e-03 4.001455e-03 9.971480e-01 -2.812664e-02 9.971525e-01 -2.812714e-02 2.613666e-03 4.170944e-03
1.190000e+10 2.421068e-03 4.033546e-03 9.971363e-01 -2.836253e-02 9.971408e-01 -2.836304e-02 2.621331e-03 4.204384e-03
1.200000e+10 2.425619e-03 4.065598e-03 9.971245e-01 -2.859836e-02 9.971290e-01 -2.859889e-02 2.629041e-03 4.237783e-03
1.210000e+10 2.430187e-03 4.097610e-03 9.971126e-01 -2.883414e-02 9.971172e-01 -2.883468e-02 2.636795e-03 4.271139e-03
1.220000e+10 2.434774e-03 4.129582e-03 9.971007e-01 -2.906987e-02 9.971053e-01 -2.907042e-02 2.644593e-03 4.304453e-03
1.230000e+10 2.439377e-03 4.161514e-03 9.970887e-01 -2.930555e-02 9.970933e-01 -2.930611e-02 2.652434e-03 4.337726e-03
1.240000e+10 2.443998e-03 4.193407e-03 9.970766e-01 -2.954117e-02 9.970813e-01 -2.954174e-02 2.660319e-03 4.370956e-03
1.250000e+10 2.448634e-03 4.225259e-03 9.970645e-01 -2.977674e-02 9.970692e-01 -2.977732e-02 2.668246e-03 4.404143e-03
1.260000e+10 2.453287e-03 4.257071e-03 9.970522e-01 -3.001225e-02 9.970570e-01 -3.001285e-02 2.676215e-03 4.437289e-03
1.270000e+10 2.457955e-03 4.288844e-03 9.970400e-01 -3.024771e-02 9.970447e-01 -3.024832e-02 2.684226e-03 4.470392e-03
1.280000e+10 2.462638e-03 4.320576e-03 9.970276e-01 -3.048312e-02 9.970324e-01 -3.048374e-02 2.692278e-03 4.503452e-03
1.290000e+10 2.467335e-03 4.352267e-03 9.970152e-01 -3.071847e-02 9.970200e-01 -3.071911e-02 2.700371e-03 4.536469e-03
1.300000e+10 2.472048e-03 4.383919e-03 9.970027e-01 -3.095377e-02 9.970076e-01 -3.095442e-02 2.708505e-03 4.569444e-03
1.310000e+10 2.476773e-03 4.415530e-03 9.969902e-01 -3.118902e-02 9.969951e-01 -3.118968e-02 2.716679e-03 4.602377e-03
1.320000e+10 2.481513e-03 4.447101e-03 9.969775e-01 -3.142421e-02 9.969825e-01 -3.142489e-02 2.724892e-03 4.635266e-03
1.330000e+10 2.486265e-03 4.478632e-03 9.969649e-01 -3.165935e-02 9.969698e-01 -3.166004e-02 2.733145e-03 4.668112e-03
1.340000e+10 2.491030e-03 4.510122e-03 9.969521e-01 -3.189444e-02 9.969571e-01 -3.189514e-02 2.741437e-03 4.700916e-03
1.350000e+10 2.495808e-03 4.541572e-03 9.969393e-01 -3.212947e-02 9.969444e-01 -3.213019e-02 2.749767e-03 4.733677e-03
1.360000e+10 2.500597e-03 4.572981e-03 9.969264e-01 -3.236445e-02 9.969315e-01 -3.236518e-02 2.758135e-03 4.766394e-03
1.370000e+10 2.505397e-03 4.604350e-03 9.969135e-01 -3.259937e-02 9.969186e-01 -3.260012e-02 2.766541e-03 4.799069e-03
1.380000e+10 2.510209e-03 4.635679e-03 9.969005e-01 -3.283424e-02 9.969057e-01 -3.283500e-02 2.774984e-03 4.831701e-03
1.390000e+10 2.515031e-03 4.666967e-03 9.968874e-01 -3.306906e-02 9.968926e-01 -3.306983e-02 2.783463e-03 4.864289e-03
1.400000e+10 2.519864e-03 4.698215e-03 9.968743e-01 -3.330382e-02 9.968796e-01 -3.330461e-02 2.791979e-03 4.896835e-03
1.410000e+10 2.524706e-03 4.729422e-03 9.968611e-01 -3.353853e-02 9.968664e-01 -3.353934e-02 2.800532e-03 4.929337e-03
1.420000e+10 2.529558e-03 4.760589e-03 9.968479e-01 -3.377319e-02 9.968532e-01 -3.377401e-02 2.809119e-03 4.961797e-03
1.430000e+10 2.534418e-03 4.791715e-03 9.968346e-01 -3.400780e-02 9.968399e-01 -3.400863e-02 2.817742e-03 4.994213e-03
1.440000e+10 2.539288e-03 4.822801e-03 9.968212e-01 -3.424235e-02 9.968266e-01 -3.424320e-02 2.826400e-03 5.026586e-03
1.450000e+10 2.544165e-03 4.853847e-03 9.968078e-01 -3.447685e-02 9.968132e-01 -3.447771e-02 2.835092e-03 5.058916e-03
1.460000e+10 2.549050e-03 4.884853e-03 9.967943e-01 -3.471129e-02 9.967998e-01 -3.471217e-02 2.843818e-03 5.091203e-03
1.470000e+10 2.553943e-03 4.915818e-03 9.967808e-01 -3.494568e-02 9.967863e-01 -3.494658e-02 2.852578e-03 5.123447e-03
1.480000e+10 2.558843e-03 4.946743e-03 9.967672e-01 -3.518002e-02 9.967728e-01 -3.518093e-02 2.861370e-03 5.155648e-03
1.490000e+10 2.563749e-03 4.977627e-03 9.967535e-01 -3.541431e-02 9.967591e-01 -3.541524e-02 2.870196e-03 5.187805e-03
1.500000e+10 2.568662e-03 5.008472e-03 9.967398e-01 -3.564854e-02 9.967455e-01 -3.564948e-02 2.879054e-03 5.219920e-03
1.510000e+10 2.573580e-03 5.039276e-03 9.967260e-01 -3.588272e-02 9.967318e-01 -3.588368e-02 2.887944e-03 5.251992e-03
1.520000e+10 2.578504e-03 5.070040e-03 9.967122e-01 -3.611685e-02 9.967180e-01 -3.611783e-02 2.896865e-03 5.284021e-03
1.530000e+10 2.583433e-03 5.100765e-03 9.966984e-01 -3.635093e-02 9.967041e-01 -3.635192e-02 2.905818e-03 5.316007e-03
1.540000e+10 2.588367e-03 5.131449e-03 9.966844e-01 -3.658495e-02 9.966903e-01 -3.658596e-02 2.914801e-03 5.347950e-03
1.550000e+10 2.593305e-03 5.162094e-03 9.966704e-01 -3.681892e-02 9.966763e-01 -3.681995e-02 2.923815e-03 5.379850e-03
1.560000e+10 2.598246e-03 5.192698e-03 9.966564e-01 -3.705284e-02 9.966623e-01 -3.705389e-02 2.932859e-03 5.411707e-03
1.570000e+10 2.603192e-03 5.223263e-03 9.966423e-01 -3.728671e-02 9.966483e-01 -3.728777e-02 2.941932e-03 5.443522e-03
1.580000e+10 2.608141e-03 5.253789e-03 9.966282e-01 -3.752053e-02 9.966342e-01 -3.752160e-02 2.951035e-03 5.475294e-03
1.590000e+10 2.613092e-03 5.284275e-03 9.966140e-01 -3.775429e-02 9.966200e-01 -3.775539e-02 2.960167e-03 5.507024e-03
1.600000e+10 2.618046e-03 5.314721e-03 9.965997e-01 -3.798800e-02 9.966058e-01 -3.798912e-02 2.969327e-03 5.538711e-03
1.610000e+10 2.623002e-03 5.345128e-03 9.965854e-01 -3.822167e-02 9.965916e-01 -3.822280e-02 2.978515e-03 5.570356e-03
1.620000e+10 2.627959e-03 5.375496e-03 9.965711e-01 -3.845528e-02 9.965773e-01 -3.845643e-02 2.987732e-03 5.601958e-03
1.630000e+10 2.632918e-03 5.405824e-03 9.965567e-01 -3.868884e-02 9.965629e-01 -3.869001e-02 2.996975e-03 5.633518e-03
1.640000e+10 2.637878e-03 5.436113e-03 9.965423e-01 -3.892235e-02 9.965485e-01 -3.892353e-02 3.006245e-03 5.665035e-03
1.650000e+10 2.642838e-03 5.466364e-03 9.965278e-01 -3.915581e-02 9.965341e-01 -3.915701e-02 3.015542e-03 5.696511e-03
1.660000e+10 2.647798e-03 5.496576e-03 9.965132e-01 -3.938922e-02 9.965196e-01 -3.939044e-02 3.024866e-03 5.727944e-03
