#   Hz   S  RI   R   50
!
0.000000e+00 2.192839e-03 0.000000e+00 9.978322e-01 0.000000e+00 9.978108e-01 0.000000e+00 2.169253e-03 0.000000e+00
1.000000e+08 2.192864e-03 4.255198e-05 9.978321e-01 -2.355920e-04 9.978107e-01 -2.352799e-04 2.169293e-03 4.430544e-05
2.000000e+08 2.192940e-03 8.510352e-05 9.978319e-01 -4.711834e-04 9.978105e-01 -4.705593e-04 2.169415e-03 8.861037e-05
3.000000e+08 2.193065e-03 1.276542e-04 9.978317e-01 -7.067735e-04 9.978103e-01 -7.058374e-04 2.169618e-03 1.329143e-04
4.000000e+08 2.193241e-03 1.702035e-04 9.978313e-01 -9.423615e-04 9.978099e-01 -9.411138e-04 2.169903e-03 1.772166e-04
5.000000e+08 2.193467e-03 2.127510e-04 9.978308e-01 -1.177947e-03 9.978094e-01 -1.176388e-03 2.170268e-03 2.215169e-04
6.000000e+08 2.193743e-03 2.552963e-04 9.978301e-01 -1.413529e-03 9.978088e-01 -1.411659e-03 2.170715e-03 2.658147e-04
7.000000e+08 2.194069e-03 2.978389e-04 9.978294e-01 -1.649107e-03 9.978081e-01 -1.646926e-03 2.171243e-03 3.101093e-04
8.000000e+08 2.194445e-03 3.403784e-04 9.978285e-01 -1.884680e-03 9.978073e-01 -1.882189e-03 2.171852e-03 3.544004e-04
9.000000e+08 2.194871e-03 3.829144e-04 9.978276e-01 -2.120248e-03 9.978064e-01 -2.117448e-03 2.172543e-03 3.986874e-04
1.000000e+09 2.195348e-03 4.254463e-04 9.978265e-01 -2.355810e-03 9.978053e-01 -2.352701e-03 2.173314e-03 4.429697e-04
1.100000e+09 2.195874e-03 4.679738e-04 9.978253e-01 -2.591366e-03 9.978042e-01 -2.587948e-03 2.174166e-03 4.872469e-04
1.200000e+09 2.196450e-03 5.104964e-04 9.978240e-01 -2.826913e-03 9.978029e-01 -2.823189e-03 2.175100e-03 5.315185e-04
1.300000e+09 2.197076e-03 5.530137e-04 9.978226e-01 -3.062453e-03 9.978016e-01 -3.058422e-03 2.176114e-03 5.757839e-04
1.400000e+09 2.197752e-03 5.955252e-04 9.978211e-01 -3.297985e-03 9.978001e-01 -3.293648e-03 2.177209e-03 6.200427e-04
1.500000e+09 2.198477e-03 6.380304e-04 9.978194e-01 -3.533507e-03 9.977986e-01 -3.528865e-03 2.178384e-03 6.642944e-04
1.600000e+09 2.199252e-03 6.805291e-04 9.978177e-01 -3.769019e-03 9.977969e-01 -3.764073e-03 2.179640e-03 7.085383e-04
1.700000e+09 2.200077e-03 7.230206e-04 9.978158e-01 -4.004520e-03 9.977951e-01 -3.999272e-03 2.180977e-03 7.527741e-04
1.800000e+09 2.200951e-03 7.655046e-04 9.978138e-01 -4.240010e-03 9.977932e-01 -4.234461e-03 2.182394e-03 7.970012e-04
1.900000e+09 2.201875e-03 8.079807e-04 9.978117e-01 -4.475489e-03 9.977912e-01 -4.469639e-03 2.183892e-03 8.412192e-04
2.000000e+09 2.202848e-03 8.504483e-04 9.978095e-01 -4.710954e-03 9.977891e-01 -4.704806e-03 2.185470e-03 8.854275e-04
2.100000e+09 2.203870e-03 8.929071e-04 9.978072e-01 -4.946407e-03 9.977869e-01 -4.939961e-03 2.187128e-03 9.296255e-04
2.200000e+09 2.204941e-03 9.353566e-04 9.978048e-01 -5.181845e-03 9.977845e-01 -5.175104e-03 2.188866e-03 9.738130e-04
2.300000e+09 2.206062e-03 9.777965e-04 9.978022e-01 -5.417269e-03 9.977821e-01 -5.410234e-03 2.190684e-03 1.017989e-03
2.400000e+09 2.207231e-03 1.020226e-03 9.977996e-01 -5.652678e-03 9.977796e-01 -5.645350e-03 2.192581e-03 1.062154e-03
2.500000e+09 2.208449e-03 1.062645e-03 9.977968e-01 -5.888071e-03 9.977769e-01 -5.880452e-03 2.194559e-03 1.106306e-03
2.600000e+09 2.209716e-03 1.105054e-03 9.977939e-01 -6.123448e-03 9.977742e-01 -6.115539e-03 2.196616e-03 1.150446e-03
2.700000e+09 2.211031e-03 1.147450e-03 9.977910e-01 -6.358807e-03 9.977713e-01 -6.350611e-03 2.198752e-03 1.194573e-03
2.800000e+09 2.212395e-03 1.189835e-03 9.977879e-01 -6.594149e-03 9.977683e-01 -6.585667e-03 2.200967e-03 1.238686e-03
2.900000e+09 2.213807e-03 1.232208e-03 9.977847e-01 -6.829472e-03 9.977653e-01 -6.820707e-03 2.203262e-03 1.282784e-03
3.000000e+09 2.215268e-03 1.274568e-03 9.977813e-01 -7.064777e-03 9.977621e-01 -7.055729e-03 2.205635e-03 1.326869e-03
3.100000e+09 2.216776e-03 1.316915e-03 9.977779e-01 -7.300062e-03 9.977588e-01 -7.290734e-03 2.208087e-03 1.370938e-03
3.200000e+09 2.218332e-03 1.359248e-03 9.977744e-01 -7.535326e-03 9.977554e-01 -7.525722e-03 2.210618e-03 1.414992e-03
3.300000e+09 2.219936e-03 1.401568e-03 9.977707e-01 -7.770570e-03 9.977519e-01 -7.760690e-03 2.213227e-03 1.459029e-03
3.400000e+09 2.221588e-03 1.443873e-03 9.977670e-01 -8.005793e-03 9.977483e-01 -7.995639e-03 2.215914e-03 1.503050e-03
3.500000e+09 2.223287e-03 1.486163e-03 9.977631e-01 -8.240993e-03 9.977446e-01 -8.230569e-03 2.218679e-03 1.547054e-03
3.600000e+09 2.225033e-03 1.528438e-03 9.977591e-01 -8.476171e-03 9.977408e-01 -8.465478e-03 2.221522e-03 1.591041e-03
3.700000e+09 2.226826e-03 1.570698e-03 9.977550e-01 -8.711326e-03 9.977369e-01 -8.700366e-03 2.224443e-03 1.635010e-03
3.800000e+09 2.228666e-03 1.612942e-03 9.977509e-01 -8.946456e-03 9.977329e-01 -8.935234e-03 2.227441e-03 1.678960e-03
3.900000e+09 2.230553e-03 1.655169e-03 9.977466e-01 -9.181563e-03 9.977288e-01 -9.170079e-03 2.230517e-03 1.722891e-03
4.000000e+09 2.232487e-03 1.697379e-03 9.977421e-01 -9.416644e-03 9.977246e-01 -9.404901e-03 2.233669e-03 1.766803e-03
4.100000e+09 2.234467e-03 1.739573e-03 9.977376e-01 -9.651699e-03 9.977202e-01 -9.639701e-03 2.236898e-03 1.810696e-03
4.200000e+09 2.236493e-03 1.781749e-03 9.977330e-01 -9.886729e-03 9.977158e-01 -9.874477e-03 2.240204e-03 1.854568e-03
4.300000e+09 2.238565e-03 1.823906e-03 9.977283e-01 -1.012173e-02 9.977113e-01 -1.010923e-02 2.243586e-03 1.898419e-03
4.400000e+09 2.240683e-03 1.866046e-03 9.977234e-01 -1.035671e-02 9.977066e-01 -1.034396e-02 2.247044e-03 1.942250e-03
4.500000e+09 2.242846e-03 1.908166e-03 9.977185e-01 -1.059165e-02 9.977019e-01 -1.057866e-02 2.250578e-03 1.986059e-03
4.600000e+09 2.245055e-03 1.950268e-03 9.977135e-01 -1.082657e-02 9.976970e-01 -1.081334e-02 2.254188e-03 2.029845e-03
4.700000e+09 2.247310e-03 1.992350e-03 9.977083e-01 -1.106146e-02 9.976921e-01 -1.104799e-02 2.257873e-03 2.073610e-03
4.800000e+09 2.249609e-03 2.034412e-03 9.977030e-01 -1.129632e-02 9.976871e-01 -1.128261e-02 2.261634e-03 2.117351e-03
4.900000e+09 2.251953e-03 2.076454e-03 9.976977e-01 -1.153115e-02 9.976819e-01 -1.151721e-02 2.265469e-03 2.161069e-03
5.000000e+09 2.254341e-03 2.118475e-03 9.976922e-01 -1.176595e-02 9.976767e-01 -1.175178e-02 2.269379e-03 2.204763e-03
5.100000e+09 2.256774e-03 2.160476e-03 9.976866e-01 -1.200072e-02 9.976713e-01 -1.198632e-02 2.273363e-03 2.248433e-03
5.200000e+09 2.259250e-03 2.202454e-03 9.976810e-01 -1.223546e-02 9.976659e-01 -1.222083e-02 2.277422e-03 2.292079e-03
5.300000e+09 2.261771e-03 2.244412e-03 9.976752e-01 -1.247016e-02 9.976603e-01 -1.245532e-02 2.281554e-03 2.335699e-03
5.400000e+09 2.264335e-03 2.286346e-03 9.976693e-01 -1.270483e-02 9.976547e-01 -1.268977e-02 2.285760e-03 2.379294e-03
5.500000e+09 2.266943e-03 2.328259e-03 9.976633e-01 -1.293947e-02 9.976489e-01 -1.292420e-02 2.290039e-03 2.422864e-03
5.600000e+09 2.269594e-03 2.370149e-03 9.976572e-01 -1.317407e-02 9.976431e-01 -1.315859e-02 2.294391e-03 2.466407e-03
5.700000e+09 2.272287e-03 2.412015e-03 9.976510e-01 -1.340864e-02 9.976371e-01 -1.339296e-02 2.298816e-03 2.509923e-03
5.800000e+09 2.275024e-03 2.453858e-03 9.976447e-01 -1.364318e-02 9.976311e-01 -1.362729e-02 2.303313e-03 2.553412e-03
5.900000e+09 2.277802e-03 2.495677e-03 9.976383e-01 -1.387768e-02 9.976249e-01 -1.386159e-02 2.307883e-03 2.596874e-03
6.000000e+09 2.280623e-03 2.537472e-03 9.976318e-01 -1.411214e-02 9.976187e-01 -1.409586e-02 2.312524e-03 2.640308e-03
6.100000e+09 2.283486e-03 2.579242e-03 9.976252e-01 -1.434657e-02 9.976124e-01 -1.433009e-02 2.317237e-03 2.683713e-03
6.200000e+09 2.286390e-03 2.620987e-03 9.976185e-01 -1.458096e-02 9.976059e-01 -1.456429e-02 2.322021e-03 2.727090e-03
6.300000e+09 2.289336e-03 2.662708e-03 9.976117e-01 -1.481531e-02 9.975994e-01 -1.479846e-02 2.326876e-03 2.770438e-03
6.400000e+09 2.292322e-03 2.704402e-03 9.976049e-01 -1.504962e-02 9.975928e-01 -1.503260e-02 2.331801e-03 2.813756e-03
6.500000e+09 2.295350e-03 2.746071e-03 9.975979e-01 -1.528390e-02 9.975860e-01 -1.526670e-02 2.336797e-03 2.857045e-03
6.600000e+09 2.298417e-03 2.787713e-03 9.975908e-01 -1.551814e-02 9.975792e-01 -1.550076e-02 2.341862e-03 2.900304e-03
6.700000e+09 2.301526e-03 2.829329e-03 9.975836e-01 -1.575234e-02 9.975723e-01 -1.573479e-02 2.346998e-03 2.943532e-03
6.800000e+09 2.304674e-03 2.870918e-03 9.975763e-01 -1.598650e-02 9.975653e-01 -1.596878e-02 2.352202e-03 2.986729e-03
6.900000e+09 2.307861e-03 2.912479e-03 9.975689e-01 -1.622061e-02 9.975582e-01 -1.620274e-02 2.357475e-03 3.029895e-03
7.000000e+09 2.311088e-03 2.954014e-03 9.975614e-01 -1.645469e-02 9.975510e-01 -1.643666e-02 2.362818e-03 3.073029e-03
7.100000e+09 2.314354e-03 2.995520e-03 9.975538e-01 -1.668873e-02 9.975437e-01 -1.667055e-02 2.368228e-03 3.116132e-03
7.200000e+09 2.317659e-03 3.036999e-03 9.975462e-01 -1.692273e-02 9.975363e-01 -1.690439e-02 2.373706e-03 3.159202e-03
7.300000e+09 2.321003e-03 3.078449e-03 9.975384e-01 -1.715668e-02 9.975288e-01 -1.713820e-02 2.379252e-03 3.202239e-03
7.400000e+09 2.324384e-03 3.119870e-03 9.975305e-01 -1.739059e-02 9.975213e-01 -1.737197e-02 2.384865e-03 3.245244e-03
7.500000e+09 2.327803e-03 3.161262e-03 9.975226e-01 -1.762446e-02 9.975136e-01 -1.760570e-02 2.390545e-03 3.288215e-03
7.600000e+09 2.331260e-03 3.202625e-03 9.975145e-01 -1.785829e-02 9.975058e-01 -1.783940e-02 2.396291e-03 3.331152e-03
7.700000e+09 2.334754e-03 3.243958e-03 9.975064e-01 -1.809207e-02 9.974980e-01 -1.807305e-02 2.402104e-03 3.374056e-03
7.800000e+09 2.338285e-03 3.285262e-03 9.974981e-01 -1.832581e-02 9.974901e-01 -1.830667e-02 2.407982e-03 3.416925e-03
7.900000e+09 2.341853e-03 3.326536e-03 9.974898e-01 -1.855950e-02 9.974820e-01 -1.854024e-02 2.413926e-03 3.459760e-03
8.000000e+09 2.345457e-03 3.367779e-03 9.974814e-01 -1.879315e-02 9.974739e-01 -1.877378e-02 2.419935e-03 3.502560e-03
8.100000e+09 2.349097e-03 3.408991e-03 9.974729e-01 -1.902676e-02 9.974657e-01 -1.900727e-02 2.426008e-03 3.545325e-03
8.200000e+09 2.352772e-03 3.450172e-03 9.974643e-01 -1.926032e-02 9.974574e-01 -1.924072e-02 2.432146e-03 3.588054e-03
8.300000e+09 2.356483e-03 3.491323e-03 9.974556e-01 -1.949383e-02 9.974490e-01 -1.947413e-02 2.438347e-03 3.630747e-03
8.400000e+09 2.360229e-03 3.532442e-03 9.974468e-01 -1.972730e-02 9.974405e-01 -1.970750e-02 2.444612e-03 3.673404e-03
8.500000e+09 2.364010e-03 3.573529e-03 9.974379e-01 -1.996072e-02 9.974320e-01 -1.994083e-02 2.450941e-03 3.716025e-03
8.600000e+09 2.367825e-03 3.614584e-03 9.974289e-01 -2.019410e-02 9.974233e-01 -2.017412e-02 2.457332e-03 3.758609e-03
8.700000e+09 2.371673e-03 3.655607e-03 9.974199e-01 -2.042743e-02 9.974146e-01 -2.040736e-02 2.463785e-03 3.801157e-03
8.800000e+09 2.375556e-03 3.696598e-03 9.974107e-01 -2.066071e-02 9.974058e-01 -2.064056e-02 2.470301e-03 3.843667e-03
8.900000e+09 2.379472e-03 3.737556e-03 9.974015e-01 -2.089394e-02 9.973969e-01 -2.087372e-02 2.476878e-03 3.886139e-03
9.000000e+09 2.383420e-03 3.778481e-03 9.973922e-01 -2.112713e-02 9.973879e-01 -2.110683e-02 2.483516e-03 3.928574e-03
9.100000e+09 2.387402e-03 3.819373e-03 9.973828e-01 -2.136026e-02 9.973788e-01 -2.133990e-02 2.490215e-03 3.970971e-03
9.200000e+09 2.391415e-03 3.860231e-03 9.973733e-01 -2.159335e-02 9.973696e-01 -2.157293e-02 2.496974e-03 4.013330e-03
9.300000e+09 2.395461e-03 3.901056e-03 9.973637e-01 -2.182639e-02 9.973604e-01 -2.180591e-02 2.503794e-03 4.055650e-03
9.400000e+09 2.399538e-03 3.941847e-03 9.973541e-01 -2.205938e-02 9.973510e-01 -2.203885e-02 2.510673e-03 4.097931e-03
9.500000e+09 2.403647e-03 3.982605e-03 9.973443e-01 -2.229232e-02 9.973416e-01 -2.227174e-02 2.517611e-03 4.140173e-03
9.600000e+09 2.407786e-03 4.023328e-03 9.973345e-01 -2.252522e-02 9.973321e-01 -2.250458e-02 2.524608e-03 4.182377e-03
9.700000e+09 2.411956e-03 4.064016e-03 9.973246e-01 -2.275806e-02 9.973225e-01 -2.273739e-02 2.531663e-03 4.224540e-03
9.800000e+09 2.416156e-03 4.104670e-03 9.973146e-01 -2.299085e-02 9.973129e-01 -2.297014e-02 2.538777e-03 4.266664e-03
9.900000e+09 2.420386e-03 4.145290e-03 9.973045e-01 -2.322359e-02 9.973031e-01 -2.320285e-02 2.545947e-03 4.308748e-03
1.000000e+10 2.424645e-03 4.185874e-03 9.972943e-01 -2.345628e-02 9.972933e-01 -2.343552e-02 2.553175e-03 4.350792e-03
1.010000e+10 2.428933e-03 4.226423e-03 9.972841e-01 -2.368892e-02 9.972834e-01 -2.366813e-02 2.560460e-03 4.392796e-03
1.020000e+10 2.433251e-03 4.266937e-03 9.972738e-01 -2.392151e-02 9.972734e-01 -2.390070e-02 2.567801e-03 4.434759e-03
1.030000e+10 2.437596e-03 4.307415e-03 9.972634e-01 -2.415405e-02 9.972633e-01 -2.413323e-02 2.575198e-03 4.476682e-03
1.040000e+10 2.441970e-03 4.347857e-03 9.972529e-01 -2.438653e-02 9.972532e-01 -2.436571e-02 2.582650e-03 4.518563e-03
1.050000e+10 2.446371e-03 4.388264e-03 9.972423e-01 -2.461897e-02 9.972430e-01 -2.459814e-02 2.590158e-03 4.560404e-03
1.060000e+10 2.450799e-03 4.428635e-03 9.972317e-01 -2.485135e-02 9.972326e-01 -2.483052e-02 2.597720e-03 4.602203e-03
1.070000e+10 2.455255e-03 4.468969e-03 9.972210e-01 -2.508368e-02 9.972223e-01 -2.506285e-02 2.605336e-03 4.643961e-03
1.080000e+10 2.459737e-03 4.509267e-03 9.972102e-01 -2.531596e-02 9.972118e-01 -2.529514e-02 2.613006e-03 4.685677e-03
1.090000e+10 2.464245e-03 4.549529e-03 9.971993e-01 -2.554818e-02 9.972013e-01 -2.552738e-02 2.620729e-03 4.727351e-03
1.100000e+10 2.468779e-03 4.589754e-03 9.971884e-01 -2.578036e-02 9.971907e-01 -2.575957e-02 2.628506e-03 4.768984e-03
1.110000e+10 2.473338e-03 4.629942e-03 9.971774e-01 -2.601248e-02 9.971800e-01 -2.599172e-02 2.636334e-03 4.810574e-03
1.120000e+10 2.477922e-03 4.670093e-03 9.971663e-01 -2.624455e-02 9.971692e-01 -2.622381e-02 2.644215e-03 4.852122e-03
1.130000e+10 2.482531e-03 4.710207e-03 9.971551e-01 -2.647656e-02 9.971584e-01 -2.645586e-02 2.652148e-03 4.893627e-03
1.140000e+10 2.487165e-03 4.750284e-03 9.971438e-01 -2.670852e-02 9.971475e-01 -2.668785e-02 2.660131e-03 4.935090e-03
1.150000e+10 2.491822e-03 4.790324e-03 9.971325e-01 -2.694043e-02 9.971365e-01 -2.691980e-02 2.668166e-03 4.976511e-03
1.160000e+10 2.496503e-03 4.830326e-03 9.971211e-01 -2.717228e-02 9.971254e-01 -2.715170e-02 2.676250e-03 5.017888e-03
1.170000e+10 2.501207e-03 4.870290e-03 9.971097e-01 -2.740408e-02 9.971143e-01 -2.738355e-02 2.684385e-03 5.059223e-03
1.180000e+10 2.505934e-03 4.910217e-03 9.970981e-01 -2.763583e-02 9.971031e-01 -2.761536e-02 2.692569e-03 5.100514e-03
1.190000e+10 2.510683e-03 4.950107e-03 9.970865e-01 -2.786753e-02 9.970918e-01 -2.784711e-02 2.700803e-03 5.141762e-03
1.200000e+10 2.515455e-03 4.989958e-03 9.970748e-01 -2.809916e-02 9.970804e-01 -2.807881e-02 2.709085e-03 5.182967e-03
1.210000e+10 2.520248e-03 5.029772e-03 9.970631e-01 -2.833075e-02 9.970690e-01 -2.831046e-02 2.717415e-03 5.224128e-03
1.220000e+10 2.525062e-03 5.069547e-03 9.970513e-01 -2.856228e-02 9.970575e-01 -2.854207e-02 2.725793e-03 5.265246e-03
1.230000e+10 2.529898e-03 5.109284e-03 9.970394e-01 -2.879376e-02 9.970460e-01 -2.877362e-02 2.734218e-03 5.306320e-03
1.240000e+10 2.534753e-03 5.148983e-03 9.970274e-01 -2.902518e-02 9.970343e-01 -2.900513e-02 2.742690e-03 5.347351e-03
1.250000e+10 2.539630e-03 5.188644e-03 9.970154e-01 -2.925655e-02 9.970226e-01 -2.923658e-02 2.751208e-03 5.388337e-03
1.260000e+10 2.544525e-03 5.228266e-03 9.970033e-01 -2.948787e-02 9.970109e-01 -2.946798e-02 2.759773e-03 5.429280e-03
1.270000e+10 2.549441e-03 5.267850e-03 9.969912e-01 -2.971913e-02 9.969990e-01 -2.969934e-02 2.768383e-03 5.470179e-03
1.280000e+10 2.554375e-03 5.307395e-03 9.969789e-01 -2.995034e-02 9.969871e-01 -2.993064e-02 2.777038e-03 5.511034e-03
1.290000e+10 2.559328e-03 5.346902e-03 9.969666e-01 -3.018149e-02 9.969751e-01 -3.016189e-02 2.785739e-03 5.551844e-03
1.300000e+10 2.564299e-03 5.386370e-03 9.969543e-01 -3.041259e-02 9.969631e-01 -3.039310e-02 2.794483e-03 5.592611e-03
1.310000e+10 2.569288e-03 5.425799e-03 9.969419e-01 -3.064363e-02 9.969510e-01 -3.062425e-02 2.803271e-03 5.633333e-03
1.320000e+10 2.574295e-03 5.465190e-03 9.969294e-01 -3.087462e-02 9.969388e-01 -3.085535e-02 2.812103e-03 5.674011e-03
1.330000e+10 2.579319e-03 5.504541e-03 9.969168e-01 -3.110555e-02 9.969266e-01 -3.108641e-02 2.820978e-03 5.714644e-03
1.340000e+10 2.584360e-03 5.543854e-03 9.969042e-01 -3.133643e-02 9.969143e-01 -3.131741e-02 2.829895e-03 5.755233e-03
1.350000e+10 2.589417e-03 5.583128e-03 9.968915e-01 -3.156726e-02 9.969019e-01 -3.154836e-02 2.838855e-03 5.795778e-03
1.360000e+10 2.594490e-03 5.622363e-03 9.968788e-01 -3.179803e-02 9.968895e-01 -3.177926e-02 2.847856e-03 5.836278e-03
1.370000e+10 2.599579e-03 5.661559e-03 9.968660e-01 -3.202875e-02 9.968770e-01 -3.201011e-02 2.856898e-03 5.876734e-03
1.380000e+10 2.604683e-03 5.700717e-03 9.968531e-01 -3.225941e-02 9.968645e-01 -3.224091e-02 2.865982e-03 5.917145e-03
1.390000e+10 2.609802e-03 5.739835e-03 9.968402e-01 -3.249002e-02 9.968518e-01 -3.247166e-02 2.875106e-03 5.957512e-03
1.400000e+10 2.614935e-03 5.778914e-03 9.968272e-01 -3.272057e-02 9.968392e-01 -3.270236e-02 2.884270e-03 5.997834e-03
1.410000e+10 2.620083e-03 5.817954e-03 9.968142e-01 -3.295107e-02 9.968264e-01 -3.293301e-02 2.893473e-03 6.038112e-03
1.420000e+10 2.625244e-03 5.856955e-03 9.968011e-01 -3.318151e-02 9.968136e-01 -3.316361e-02 2.902716e-03 6.078345e-03
1.430000e+10 2.630419e-03 5.895917e-03 9.967879e-01 -3.341191e-02 9.968007e-01 -3.339416e-02 2.911997e-03 6.118533e-03
1.440000e+10 2.635607e-03 5.934840e-03 9.967747e-01 -3.364224e-02 9.967878e-01 -3.362466e-02 2.921317e-03 6.158677e-03
1.450000e+10 2.640807e-03 5.973724e-03 9.967614e-01 -3.387253e-02 9.967748e-01 -3.385510e-02 2.930675e-03 6.198776e-03
1.460000e+10 2.646020e-03 6.012569e-03 9.967481e-01 -3.410275e-02 9.967618e-01 -3.408550e-02 2.940070e-03 6.238831e-03
1.470000e+10 2.651245e-03 6.051375e-03 9.967347e-01 -3.433293e-02 9.967487e-01 -3.431585e-02 2.949503e-03 6.278841e-03
1.480000e+10 2.656481e-03 6.090142e-03 9.967213e-01 -3.456305e-02 9.967355e-01 -3.454614e-02 2.958972e-03 6.318807e-03
1.490000e+10 2.661729e-03 6.128870e-03 9.967078e-01 -3.479312e-02 9.967223e-01 -3.477639e-02 2.968477e-03 6.358728e-03
1.500000e+10 2.666987e-03 6.167559e-03 9.966942e-01 -3.502313e-02 9.967091e-01 -3.500659e-02 2.978018e-03 6.398605e-03
1.510000e+10 2.672256e-03 6.206209e-03 9.966806e-01 -3.525310e-02 9.966957e-01 -3.523674e-02 2.987595e-03 6.438437e-03
1.520000e+10 2.677535e-03 6.244820e-03 9.966670e-01 -3.548300e-02 9.966823e-01 -3.546683e-02 2.997207e-03 6.478225e-03
1.530000e+10 2.682824e-03 6.283392e-03 9.966533e-01 -3.571286e-02 9.966689e-01 -3.569688e-02 3.006853e-03 6.517968e-03
1.540000e+10 2.688122e-03 6.321925e-03 9.966395e-01 -3.594266e-02 9.966554e-01 -3.592688e-02 3.016534e-03 6.557667e-03
1.550000e+10 2.693429e-03 6.360420e-03 9.966257e-01 -3.617241e-02 9.966418e-01 -3.615682e-02 3.026248e-03 6.597322e-03
1.560000e+10 2.698745e-03 6.398876e-03 9.966118e-01 -3.640210e-02 9.966282e-01 -3.638672e-02 3.035996e-03 6.636933e-03
1.570000e+10 2.704070e-03 6.437293e-03 9.965979e-01 -3.663175e-02 9.966146e-01 -3.661657e-02 3.045777e-03 6.676500e-03
1.580000e+10 2.709402e-03 6.475672e-03 9.965839e-01 -3.686134e-02 9.966009e-01 -3.684637e-02 3.055590e-03 6.716022e-03
1.590000e+10 2.714742e-03 6.514012e-03 9.965699e-01 -3.709088e-02 9.965871e-01 -3.707612e-02 3.065436e-03 6.755501e-03
1.600000e+10 2.720089e-03 6.552313e-03 9.965558e-01 -3.732036e-02 9.965733e-01 -3.730582e-02 3.075314e-03 6.794935e-03
1.610000e+10 2.725443e-03 6.590576e-03 9.965417e-01 -3.754980e-02 9.965594e-01 -3.753547e-02 3.085223e-03 6.834326e-03
1.620000e+10 2.730804e-03 6.628801e-03 9.965275e-01 -3.777918e-02 9.965455e-01 -3.776508e-02 3.095163e-03 6.873673e-03
1.630000e+10 2.736170e-03 6.666987e-03 9.965133e-01 -3.800851e-02 9.965315e-01 -3.799463e-02 3.105134e-03 6.912976e-03
1.640000e+10 2.741543e-03 6.705135e-03 9.964990e-01 -3.823779e-02 9.965175e-01 -3.822414e-02 3.115135e-03 6.952236e-03
1.650000e+10 2.746921e-03 6.743245e-03 9.964847e-01 -3.846702e-02 9.965034e-01 -3.845359e-02 3.125166e-03 6.991452e-03
1.660000e+10 2.752305e-03 6.781317e-03 9.964703e-01 -3.869620e-02 9.964892e-01 -3.868300e-02 3.135226e-03 7.030625e-03
