#   Hz   S  RI   R   50
!
0.0 0.004151947915718698 0.0 0.9959956481943559 0.0 0.9960241436491512 0.0 0.004124495251962998 0.0
100000000.0 0.004152089072028923 -5.034682935817471e-07 0.995995209218357 -0.0006850606144381193 0.9960236856232715 -0.0006861643558677445 0.004124645309137317 1.8767424791319444e-07
200000000.0 0.004152512492446254 -1.011975350769941e-06 0.9959938923810103 -0.001370112555559912 0.9960223116565361 -0.0013723187845811654 0.004125095425618303 3.698372357247734e-07
300000000.0 0.004153218031456887 -1.530557861119482e-06 0.9959916979542077 -0.00205514715433911 0.9960200220815755 -0.0020584533645859712 0.0041258454363074775 5.409801586317914e-07
400000000.0 0.004154205446618327 -2.0642483673251254e-06 0.9959886263909229 -0.002740155750326522 0.9960168174525219 -0.0027445581855234367 0.004126895066141843 6.955991207625375e-07
500000000.0 0.004155474398683262 -2.6180731949979373e-06 0.9959846783249381 -0.0034251296959311494 0.9960126985446266 -0.0034306233538170623 0.004128243930246564 8.281975853758733e-07
600000000.0 0.004157024451769724 -3.197050386180379e-06 0.9959798545704599 -0.004110060360692329 0.9960076663537303 -0.00411663899824578 0.004129891534147976 9.332888201780041e-07
700000000.0 0.0041588550735790234 -3.806187638160876e-06 0.9959741561216349 -0.004794939135540044 0.9960017220955785 -0.004802595275499461 0.004131837274045917 1.005398335691846e-06
800000000.0 0.004160965635666888 -4.450480248281261e-06 0.9959675841519466 -0.0054797574370402564 0.9959948672049856 -0.005488482375711993 0.004134080437146784 1.0390663154526904e-06
900000000.0 0.004163355413758051 -5.13490906667583e-06 0.9959601400135161 -0.0061645067116224625 0.9959871033348575 -0.006174290527967978 0.004136620202058345 1.0288500360174326e-06
1000000000.0 0.004166023588110076 -5.864438457659976e-06 0.9959518252362864 -0.006849178439786769 0.9959784323550517 -0.006860010005778416 0.004139455639241659 9.69326275419826e-07
1100000000.0 0.004168969243926391 -6.644014271319514e-06 0.995942641527104 -0.007533764140286924 0.9959688563511038 -0.007545631132520765 0.0041425857115234355 8.550937081769564e-07
1200000000.0 0.004172191371816397 -7.478561826320579e-06 0.9959325907686983 -0.008218255374287334 0.9959583776227969 -0.008231144286839756 0.004146009274667156 6.807752855196486e-07
1300000000.0 0.004175688868299221 -8.37298390538984e-06 0.9959216750185517 -0.008902643749490123 0.995946998682592 -0.008916539908004381 0.004149725078002025 4.410205989098278e-07
1400000000.0 0.004179460536360627 -9.332158764466453e-06 0.9959098965076667 -0.009586920924230783 0.9959347222539111 -0.009601808501216424 0.004153731765110441 1.305082255193e-07
1500000000.0 0.004183505086050305 -1.0360938156657832e-05 0.9958972576392323 -0.010271078611538092 0.9959215512692796 -0.010286940642867476 0.004158027874571363 -2.5605194583804755e-07
1600000000.0 0.004187821135127331 -1.1464145372729937e-05 0.9958837609871867 -0.010955108583156806 0.9959074888683281 -0.010971926985739046 0.00416261184076156 -7.239164103567509e-07
1700000000.0 0.004192407209752356 -1.2646573298411896e-05 0.9958694092946797 -0.011639002673529757 0.9958925383956568 -0.011656758264142694 0.004167481994712959 -1.2783057650812173e-06
1800000000.0 0.004197261745222008 -1.3912982490482432e-05 0.9958542054724387 -0.01232275278373659 0.9958767033985587 -0.012341425298996393 0.004172636565022129 -1.9244024516571432e-06
1900000000.0 0.004202383086749387 -1.526809927217743e-05 0.995838152597032 -0.013006350885386818 0.9958599876246156 -0.013025919002831444 0.004178073678818871 -2.6673485240969337e-06
2000000000.0 0.004207769490287017 -1.671661384972791e-05 0.9958212539090359 -0.013689789024465182 0.9958423950191538 -0.013710230384729183 0.004183791362783336 -3.512243444363766e-06
2100000000.0 0.004213419123394983 -1.826317844997996e-05 0.9958035128111145 -0.01437305932512433 0.9958239297225769 -0.014394350555180707 0.004189787544220298 -4.4641419061718845e-06
2200000000.0 0.004219330066149213 -1.9912405481693088e-05 0.9957849328659929 -0.01505615399342607 0.9958045960675643 -0.015078270730867977 0.0041960600521828515 -5.528051688301203e-06
2300000000.0 0.004225500312092701 -2.16688657199714e-05 0.9957655177943489 -0.01573906532102551 0.9957843985761521 -0.015761982239361885 0.0042026066186462 -6.708931540329516e-06
2400000000.0 0.0042319277692274195 -2.3537086516546963e-05 0.9957452714726122 -0.016421785688796695 0.9957633419566836 -0.016445476523733772 0.004209424879733711 -8.01168909987774e-06
2500000000.0 0.004238610261047626 -2.5521550034921345e-05 0.9957241979306677 -0.017104307570398665 0.9957414311006473 -0.01712874514707775 0.004216512376990018 -9.441178844319676e-06
2600000000.0 0.0042455455276120685 -2.7626691513413e-05 0.9957023013494851 -0.017786623535777202 0.9957186710793929 -0.017811779796939372 0.004223866558702714 -1.1002200077702032e-05
2700000000.0 0.004252731226653977 -2.9856897555896475e-05 0.9956795860586503 -0.01846872625460263 0.9956950671407367 -0.01849457228964903 0.00423148478127144 -1.2699494953289105e-05
2800000000.0 0.004260164934730863 -3.221650445083244e-05 0.9956560565338214 -0.019150608499639225 0.995670624705455 -0.019177114574554916 0.004239364310619516 -1.4537746535105215e-05
2900000000.0 0.004267844148411583 -3.470979652090903e-05 0.9956317173941029 -0.01983226315004582 0.9956453493636688 -0.019859398738154965 0.004247502323655214 -1.6521576896242077e-05
3000000000.0 0.0042757662854981835 -3.7341004502678836e-05 0.9956065733993397 -0.02051368319460427 0.9956192468711269 -0.02054141700812265 0.0042558959097711326 -1.8655545258634752e-05
3100000000.0 0.004283928686283377 -4.011430395821232e-05 0.9955806294473322 -0.02119486173487545 0.9955923231453847 -0.021223161757225877 0.004264542072389355 -2.094414617262041e-05
3200000000.0 0.0042923286148458025 -4.303381371852422e-05 0.9955538905709809 -0.02187579198827781 0.9955645842618875 -0.02190462550713464 0.0042734377305457885 -2.3391807738857276e-05
3300000000.0 0.0043009632603735306 -4.610359436058835e-05 0.9955263619353565 -0.022556467291090978 0.9955360364499589 -0.022585800932115613 0.004282579720513685 -2.60028898726921e-05
3400000000.0 0.004309829738525963 -4.9327646718351164e-05 0.9954980488346976 -0.02323688110137862 0.9955066860886963 -0.023266680862612434 0.00429196479746685 -2.878168261265313e-05
3500000000.0 0.004318925092823132 -5.2709910427900495e-05 0.9954689566893434 -0.02391702700183138 0.995476539702782 -0.023947258288706908 0.004301589637179767 -3.173240447337293e-05
3600000000.0 0.004328246296068058 -5.625426250845407e-05 0.9954390910425994 -0.024596898702527317 0.9954456039582122 -0.024627526363460127 0.004311450837761316 -3.485920084364334e-05
3700000000.0 0.00433779025179939 -5.99645159793617e-05 0.9954084575575396 -0.0252764900436071 0.9954138856579368 -0.025307478406133965 0.004321544921425437 -3.816614243177657e-05
3800000000.0 0.004347553795769899 -6.38444185136573e-05 0.9953770620137482 -0.02595579499786558 0.9953813917374368 -0.025987107905284804 0.0043318683362936474 -4.1657223756609234e-05
3900000000.0 0.004357533697456904 -6.789765112894074e-05 0.9953449103040041 -0.02663480767325568 0.9953481292602169 -0.02666640852173586 0.004342417458227962 -4.533636168750836e-05
4000000000.0 0.004367726661596244 -7.212782691652672e-05 0.9953120084309033 -0.027313522315303738 0.995314105413236 -0.027345374091418368 0.004353188592697108 -4.9207394032069314e-05
4100000000.0 0.004378129329743542 -7.65384898085337e-05 0.9952783625034393 -0.02799193330943521 0.9952793275022723 -0.028023998628086 0.004364177976667689 -5.327407817291636e-05
4200000000.0 0.00438873828185956 -8.113311338480777e-05 0.9952439787335199 -0.028670035183211057 0.9952438029472257 -0.02870227632589816 0.004375381780525426 -5.754008975461715e-05
4300000000.0 0.004399550037919074 -8.591509971838259e-05 0.9952088634324446 -0.029347822608469847 0.995207539277363 -0.029380201561871627 0.00438679611002134 -6.200902142005965e-05
4400000000.0 0.004410561059543114 -9.088777826168124e-05 0.995173023007332 -0.030025290403380027 0.9951705441265133 -0.030057768898199163 0.004398417008242924 -6.668438159765189e-05
4500000000.0 0.004421767751651966 -9.605440477256625e-05 0.9951364639575039 -0.030702433534395977 0.9951328252282102 -0.030734973084434142 0.004410240457608017 -7.156959333967097e-05
4600000000.0 0.004433166464138639 -0.00010141816028221932 0.9950991928708309 -0.03137924711812051 0.9950943904107904 -0.031411809059541086 0.004422262381877925 -7.666799321299528e-05
4700000000.0 0.004444753493560223 -0.0001069821501029005 0.9950612164200399 -0.03205572642307157 0.995055247592453 -0.03208827195380864 0.004434478648197338 -8.198283023917362e-05
4800000000.0 0.004456525084852103 -0.00011274940287750424 0.9950225413589834 -0.03273186687135287 0.9950154047762784 -0.03276435709062839 0.004446885069143755 -8.751726488941034e-05
4900000000.0 0.00446847743305161 -0.00011872286967246328 0.99498317451888 -0.03340766404022781 0.9949748700452148 -0.03344005998813506 0.0044594774048026505 -9.327436813016874e-05
5000000000.0 0.004480606685045225 -0.00012490542311062975 0.9949431228045194 -0.034083113663596044 0.9949336515570388 -0.034115376360709354 0.004472251364853073 -9.925712052194804e-05
5100000000.0 0.004492908941326308 -0.0001312998565472711 0.9949023931904489 -0.034758211633370784 0.9948917575392844 -0.03479030212034493 0.004485202610668436 -0.00010546841137035457
5200000000.0 0.004505380257766944 -0.00013790888328964987 0.9948609927171251 -0.03543295400076032 0.9948491962841575 -0.0354648333778744 0.004498326757432443 -0.00011191103793102049
5300000000.0 0.004518016647403641 -0.0001447351358574736 0.9948189284870502 -0.036107336977449604 0.9948059761434251 -0.03613896644406083 0.004511619376264539 -0.0001185877046664396
5400000000.0 0.0045308140822336975 -0.00015178116528808961 0.9947762076608887 -0.036781356936681296 0.9947621055233015 -0.036812697830547844 0.004525075996354073 -0.00012550102255647278
5500000000.0 0.004543768495022089 -0.0001590494404828998 0.9947328374535627 -0.03745501041424149 0.9947175928793144 -0.03748602425067466 0.004538692107107767 -0.000132653508460924
5600000000.0 0.004556875781117282 -0.0001665423475982 0.9946888251303381 -0.03812829410934241 0.9946724467111725 -0.03815894262015169 0.004552463160297751 -0.00014004758453688853
5700000000.0 0.004570131800276094 -0.00017426218947877317 0.9946441780028971 -0.0388012048854091 0.9946266755576257 -0.03883145005760134 0.004566384572221745 -0.00014768557770646764
5800000000.0 0.004583532378496153 -0.00018221118513383114 0.994598903425404 -0.03947373977076386 0.9945802879913342 -0.03950354388495875 0.00458045172586293 -0.00015556971918027736
5900000000.0 0.004597073309850516 -0.00019039146925728135 0.9945530087905599 -0.04014589595921493 0.9945332926137367 -0.04017522162773995 0.004594659973055278 -0.00016370214402978113
6000000000.0 0.004610750358332845 -0.00019880509179032226 0.9945065015256611 -0.04081767081054317 0.9944856980499305 -0.040846481015173276 0.004609004636649477 -0.00017208489081578442
6100000000.0 0.004624559259702774 -0.00020745401752705702 0.9944593890886505 -0.041489061850893204 0.9944375129435677 -0.04151731998019533 0.004623481012679191 -0.00018071990126679153
6200000000.0 0.004638495723333527 -0.0002163401257635667 0.994411678964171 -0.042160066773063415 0.9943887459517616 -0.04218773665931528 0.0046380843725270324 -0.0001896090200091022
6300000000.0 0.004652555434064666 -0.00022546520998959678 0.9943633786596299 -0.04283068343670034 0.9943394057400218 -0.04285772939234566 0.0046528099650875 -0.00019875399435042388
6400000000.0 0.0046667340540520325 -0.00023483097762194856 0.9943144957012602 -0.043500909868394576 0.9942895009772049 -0.04352729672200193 0.0046676530189257125 -0.00020815647411221472
6500000000.0 0.004681027224619053 -0.0002444390497819538 0.9942650376301976 -0.04417074426167938 0.994239040330502 -0.044196437393371354 0.004682608744432198 -0.0002178180115148583
6600000000.0 0.004695430568105938 -0.0002542909611141523 0.9942150119985677 -0.04484018497693492 0.9941880324604437 -0.044865150353255556 0.004697672335970621 -0.00022774006111215273
6700000000.0 0.004709939689717058 -0.0002643881596475195 0.9941644263655856 -0.04550923054119441 0.9941364860159572 -0.04553343474938075 0.0047128389740199094 -0.00023792397977614047
6800000000.0 0.004724550179364453 -0.0002747320066973843 0.9941132882936743 -0.04617787964785767 0.9940844096294434 -0.046201289929488035 0.004728103827303562 -0.0002483710267313558
6900000000.0 0.004739257613507105 -0.0002853237768105749 0.9940616053446001 -0.04684613115630986 0.9940318119119079 -0.04686871544029502 0.004743462054915123 -0.0002590823636377362
7000000000.0 0.004754057556984016 -0.0002961646577508216 0.9940093850756301 -0.04751398409144506 0.9939787014481283 -0.04753571102633552 0.004758908808426718 -0.00027005905472325036
7100000000.0 0.004768945564842715 -0.00030725575052452386 0.9939566350357139 -0.048181437643100775 0.9939250867918715 -0.048202276628681144 0.004774439233989315 -0.0002813020669621992
7200000000.0 0.00478391718415859 -0.000318598069447694 0.9939033627616874 -0.04884849116540021 0.9938709764611638 -0.048868412383540054 0.004790048474418642 -0.00029281227030307565
7300000000.0 0.004798967955846645 -0.00033019254225336074 0.9938495757745104 -0.0495151441760017 0.993816378933607 -0.049534118620740995 0.004805731671265338 -0.0003045904379426275
7400000000.0 0.004814093416464377 -0.00034204001023794 0.9937952815755288 -0.050181396355261844 0.9937613026417575 -0.050199395862100954 0.004821483966872884 -0.0003166372466433019
7500000000.0 0.00482928910000476 -0.00035414122844746606 0.9937404876427739 -0.05084724754530946 0.9937057559685634 -0.05086424481968051 0.004837300506415958 -0.00032895327710070506
7600000000.0 0.004844550539676642 -0.00036649686590187034 0.9936852014272904 -0.051512697749032936 0.9936497472428573 -0.05152866639392843 0.0048531764399213995 -0.0003415390143525388
7700000000.0 0.004859873269675958 -0.0003791075058590657 0.9936294303495075 -0.05217774712898057 0.9935932847349227 -0.05219266167171484 0.004869106924274544 -0.0003543948482313844
7800000000.0 0.004875252826942827 -0.00039197364611602564 0.9935731817956424 -0.05284239600617887 0.9935363766521185 -0.05285623192426211 0.004885087125201048 -0.0003675210738630038
7900000000.0 0.0048906847529033405 -0.0004050956993475115 0.9935164631141479 -0.05350664485886493 0.9934790311345804 -0.05351937860496739 0.004901112219232297 -0.0003809178922053114
8000000000.0 0.00490616459520164 -0.00041847399348139333 0.9934592816122028 -0.0541704943211396 0.9934212562509865 -0.05418210334712554 0.004917177395646995 -0.00039458541062969
8100000000.0 0.00492168790941239 -0.00043210877211166785 0.9934016445522424 -0.054833945181538266 0.9933630599944064 -0.054844407961550885 0.004933277858392413 -0.00040852364354317924
8200000000.0 0.004937250260739816 -0.00044600019494470957 0.9933435591485397 -0.055496998381524464 0.9933044502782165 -0.055506294434104445 0.004949408827981986 -0.0004227325130512404
8300000000.0 0.004952847225699852 -0.00046014833828490254 0.9932850325638312 -0.05615965501390478 0.9932454349321042 -0.05616776492312214 0.004965565543368801 -0.00043721184965923073
8400000000.0 0.004968474393784022 -0.00047455319555058805 0.9932260719059952 -0.056821916321168446 0.9931860216981443 -0.056828821756755694 0.004981743263795649 -0.0004519613930131516
8500000000.0 0.0049841273691058705 -0.0004892146778276158 0.9931666842247773 -0.05748378369375348 0.9931262182269639 -0.057489467430221146 0.004997937270617582 -0.0004669807926780676
8600000000.0 0.004999801772029856 -0.0005041326144544625 0.9931068765085734 -0.05814525866823759 0.9930660320739896 -0.058149704602959526 0.00501414286910243 -0.0004822696089520002
8700000000.0 0.005015493240778486 -0.0005193067536397971 0.9930466556812638 -0.058806342925460595 0.9930054706957814 -0.058809536095717464 0.005030355390199745 -0.0004978273137181375
8800000000.0 0.005031197433020978 -0.0005347367631157941 0.9929860285991047 -0.059467038288576045 0.9929445414464556 -0.05946896488754123 0.005046570192286273 -0.0005136532913301407
8900000000.0 0.00504691002744059 -0.000550422230819266 0.9929250020476764 -0.060127346721036375 0.992883251574199 -0.0601279941126947 0.005062782662881526 -0.0005297468395336542
9000000000.0 0.005062626725281322 -0.0005663626656049413 0.9928635827388905 -0.060787270324509486 0.9928216082178694 -0.06078662705750045 0.005078988220334605 -0.0005461071704188918
9100000000.0 0.005078343251871522 -0.0005825574979901863 0.9928017773080589 -0.06144681133673481 0.9927596184036991 -0.061444867157108035 0.005095182315483009 -0.0005627334114078014
9200000000.0 0.005094055358127415 -0.000599006080928261 0.9927395923110217 -0.06210597212931209 0.9926972890420823 -0.062102717992190117 0.005111360433280901 -0.0005796246062716527
9300000000.0 0.0051097588220293325 -0.0006157076906115203 0.9926770342213393 -0.06276475520543487 0.9926346269244664 -0.06276018328557134 0.005127518094397215 -0.0005967797161796887
9400000000.0 0.005125449450080053 -0.000632661527301649 0.9926141094275508 -0.06342316319755985 0.9925716387203352 -0.06341726689879368 0.005143650856781641 -0.0006141976207783703
9500000000.0 0.00514112307873418 -0.0006498667161888227 0.9925508242304907 -0.06408119886502311 0.992508330974295 -0.06407397282861721 0.005159754317203584 -0.0006318771192967833
9600000000.0 0.005156775575805089 -0.0006673223082767219 0.9924871848406815 -0.06473886509159787 0.9924447101032574 -0.06473030520346237 0.005175824112753015 -0.0006498169316842789
9700000000.0 0.005172402841847597 -0.000685027281295491 0.9924231973757851 -0.06539616488300387 0.9923807823937223 -0.06538626827979653 0.005191855922315517 -0.0006680156997709656
9800000000.0 0.005188000811513859 -0.0007029805406378856 0.9923588678581272 -0.06605310136435685 0.9923165539991666 -0.06604186643846521 0.005207845468010219 -0.0006864719884576923
9900000000.0 0.005203565454883831 -0.0007211809203218106 0.9922942022122906 -0.06670967777757723 0.9922520309375295 -0.06669710418097373 0.005223788516597497 -0.0007051842869290434
10000000000.0 0.005219092778769778 -0.0007396271839765083 0.992229206262775 -0.06736589747874631 0.9921872190888034 -0.06735198612571902 0.005239680880851907 -0.0007241510098912234
10100000000.0 0.005234578827993072 -0.0007583180258526179 0.9921638857317349 -0.06802176393541647 0.9921221241927322 -0.06800651700417949 0.005255518420903029 -0.0007433704988339416
10200000000.0 0.005250019686636579 -0.0007772520718542077 0.9920982462367813 -0.06867728072387991 0.9920567518466082 -0.0686607016570589 0.005271297045541773 -0.0007628410233152059
10300000000.0 0.005265411479266125 -0.000796427880592466 0.9920322932888618 -0.0693324515263936 0.9919911075031768 -0.069314545030394 0.0052870127134912355 -0.0007825607822654528
10400000000.0 0.005280750372126862 -0.000815843944462051 0.9919660322902122 -0.06998728012836361 0.9919251964686483 -0.06996805217162144 0.005302661434645432 -0.000802527905315433
10500000000.0 0.005296032574310909 -0.0008354986907357564 0.9918994685323773 -0.07064177041549384 0.9918590239008134 -0.07062122822561571 0.005318239271273374 -0.0008227404541416045
10600000000.0 0.005311254338896741 -0.0008553904826816061 0.991832607194318 -0.0712959263708966 0.9917925948072643 -0.07127407843069238 0.0053337423391865936 -0.0008431964238313581
10700000000.0 0.005326411964059099 -0.0008755176206967712 0.9917654533405784 -0.07194975207216865 0.9917259140437258 -0.0719266081145852 0.005349166808871999 -0.0008638937442669952
10800000000.0 0.00534150179415291 -0.0008958783434591533 0.9916980119195399 -0.07260325168843629 0.9916589863124889 -0.07257882269039516 0.005364508906592673 -0.0008848302815235446
10900000000.0 0.005356520220764581 -0.0009164708291008263 0.9916302877617466 -0.07325642947737034 0.9915918161609554 -0.07323072765252159 0.0053797649154492125 -0.0009060038392890751
