#   Hz   S  RI   R   50
!
0.0 0.004407624253279138 0.0 0.9957496749827449 0.0 0.9957494594934819 0.0 0.004407653262792642 0.0
100000000.0 0.004407770480530448 -6.077737673750132e-07 0.9957491980793646 -0.0007263358548471967 0.9957489825917564 -0.0007263355595208987 0.004407799479157822 -6.088475619209605e-07
200000000.0 0.004408209112952918 -1.220728309770303e-06 0.9957477674633148 -0.0014526626303325697 0.9957475519806717 -0.0014526620396443962 0.004408238078928664 -1.2228754005631298e-06
300000000.0 0.004408940002578301 -1.8440423156823495e-06 0.9957453834168127 -0.00217897125153495 0.995745167942447 -0.0021789703654138204 0.004408968914152389 -1.8472617063913668e-06
400000000.0 0.004409962902871968 -2.4828903018481335e-06 0.9957420464100321 -0.0029052526524114414 0.9957418309472622 -0.0029052514707509085 0.004409991738323385 -2.4871804986479953e-06
500000000.0 0.004411277468858161 -3.142440530505683e-06 0.9957377571008209 -0.0036314977802288043 0.9957375416529712 -0.003631496302887279 0.004411306206504918 -3.147799542822954e-06
600000000.0 0.004412883257288235 -3.827852930438691e-06 0.9957325163343104 -0.004357697599985661 0.9957323009047144 -0.004357695826786653 0.004412911875498759 -3.834278272054723e-06
700000000.0 0.004414779726860178 -4.544277023164389e-06 0.9957263251424047 -0.005083843098822412 0.995726109734406 -0.005083841029554973 0.0044148082040655215 -4.551765713420373e-06
800000000.0 0.004416966238487709 -5.296849855190004e-06 0.9957191847431656 -0.005809925290415722 0.9957189693601208 -0.005809922924834779 0.004416994553190016 -5.305398420725077e-06
900000000.0 0.004419442055613129 -6.090693938150518e-06 0.995711096540085 -0.006535935219354637 0.9957108811853647 -0.0065359325571815565 0.004419470186400085 -6.100298414508088e-06
1000000000.0 0.004422206344572636 -6.930915197475769e-06 0.9957020621212422 -0.00726186396549556 0.9957018467982339 -0.007261861006418573 0.004422234270126729 -6.941571131334855e-06
1100000000.0 0.004425258175008436 -7.822600930992483e-06 0.9956920832583577 -0.007987702648292213 0.9956918679704659 -0.007987699391967263 0.004425285874116957 -7.834303382520738e-06
1200000000.0 0.004428596520324854 -8.770817779150205e-06 0.995681161905734 -0.008713442431098862 0.9956809466563837 -0.008713438877150113 0.004428623971893081 -8.783561324492598e-06
1300000000.0 0.004432220258195034 -9.780609707415399e-06 0.9956693001990881 -0.009439074525442901 0.995669084991726 -0.009439070673463576 0.004432247441256003 -9.794388441532882e-06
1400000000.0 0.00443612817111397 -1.085699600221011e-05 0.9956565004542789 -0.010164590195264146 0.9956562852923752 -0.010164586044817356 0.004436155064838148 -1.0871803542128572e-05
1500000000.0 0.004440318946995189 -1.2004969281953607e-05 0.995642765165928 -0.010889980761117978 0.9956425500529771 -0.010889976311737716 0.00444034553070387 -1.2020798769966842e-05
1600000000.0 0.00444479117981634 -1.3229493524047745e-05 0.9956280970059318 -0.011615237604339893 0.9956278819454568 -0.011615232855531671 0.004444817432989572 -1.3246337631375906e-05
1700000000.0 0.00444954337030714 -1.4535502108928588e-05 0.9956124988218755 -0.012340352171167518 0.9956122838174265 -0.012340347122409868 0.004449569272596131 -1.4553353039450295e-05
1800000000.0 0.0044545739266854244 -1.5927895882417762e-05 0.9955959736353385 -0.013065315976818849 0.9955957586904971 -0.013065310627563798 0.004454599457922337 -1.5946745376855154e-05
1900000000.0 0.0044598811654344905 -1.741154123758495e-05 0.9955785246401041 -0.013790120609522253 0.9955783097584823 -0.013790114959197238 0.004459906305642207 -1.7431380577892683e-05
2000000000.0 0.004465463312124711 -1.8991268217323136e-05 0.9955601552002635 -0.014514757734497577 0.9955599403855078 -0.01451475178250596 0.004465488041528027 -1.9012088231068576e-05
2100000000.0 0.004471318502279307 -2.0671868638143974e-05 0.9955408688482257 -0.015239219097883778 0.9955406541040175 -0.015239212843606362 0.004471342801315044 -2.0693659703414912e-05
2200000000.0 0.00447744478228302 -2.2458094237018505e-05 0.9955206692826307 -0.01596349653061117 0.9955204546126869 -0.015963489973407585 0.004477468631609001 -2.2480846287376137e-05
2300000000.0 0.004483840110329237 -2.4354654841831426e-05 0.9954995603661626 -0.016687581952216805 0.9954993457742388 -0.016687575091426942 0.004483863490835158 -2.4378357371695397e-05
2400000000.0 0.004490502357412674 -2.6366216566642367e-05 0.9954775461232764 -0.01741146737459865 0.9954773316131683 -0.017411460209543865 0.004490525250230102 -2.6390858636557085e-05
2500000000.0 0.004497429308358634 -2.8497400032585553e-05 0.9954546307378271 -0.018135144905707834 0.9954544163133692 -0.01813513743569258 0.00449745169486886 -2.8522970275191497e-05
2600000000.0 0.004504618662894254 -3.0752778615949e-05 0.9954308185506129 -0.01885860675317504 0.9954306042156817 -0.01885859897748821 0.004504640524740482 -3.0779265241630896e-05
2700000000.0 0.004512068036757725 -3.31368767233626e-05 0.9954061140568264 -0.019581845227870282 0.9954058998153428 -0.019581837145787127 0.004512089355851531 -3.316426752658764e-05
2800000000.0 0.004519774962844903 -3.565416809624799e-05 0.9953805219034269 -0.02030485274739235 0.9953803077593557 -0.02030484435817582 0.004519795721378075 -3.5682450461725546e-05
2900000000.0 0.0045277368923954415 -3.8309074143978936e-05 0.9953540468864208 -0.02102762183948727 0.9953538328437721 -0.021027613142389767 0.004527757072847114 -3.8338235053559236e-05
3000000000.0 0.004535951196211701 -4.110596230889227e-05 0.9953266939480657 -0.021750145145391826 0.9953264800108962 -0.021750136139657036 0.004535970781357957 -4.113598834793496e-05
3100000000.0 0.0045444151659164884 -4.404914446100363e-05 0.9952984681739933 -0.022472415423102278 0.9952982543464072 -0.022472406107966737 0.004544434138839999 -4.408002182529895e-05
3200000000.0 0.004553126015245078 -4.7142875325696986e-05 0.9952693747902552 -0.023194425550563866 0.9952691610764058 -0.02319441592525867 0.004553144359341485 -4.717458982925747e-05
3300000000.0 0.004562080881367177 -5.039135094439403e-05 0.9952394191602926 -0.023916168528781222 0.9952392055643823 -0.02391615859253448 0.004562098580355336 -5.0423888026087135e-05
3400000000.0 0.004571276826247629 -5.379870716854012e-05 0.9952086067818361 -0.02463763748484734 0.9952083933081173 -0.02463762723688521 0.004571293864176946 -5.383205189998503e-05
3500000000.0 0.00458071083803412 -5.736901818819892e-05 0.9951769432837303 -0.025358825674888244 0.9951767299365077 -0.025358815114437317 0.0045807271992931616 -5.74031552812886e-05
3600000000.0 0.004590379832477928 -6.11062950955432e-05 0.9951444344226965 -0.026079726486922715 0.9951442212063251 -0.026079715613212217 0.004590395501801532 -6.114120891064672e-05
3700000000.0 0.004600280654384188 -6.50144844849875e-05 0.9951110860800244 -0.026800333443635957 0.9951108729989132 -0.026800322255898852 0.004600295616861963 -6.505015903859261e-05
3800000000.0 0.00461041007909095 -6.909746708844715e-05 0.9950769042582044 -0.02752064020506392 0.9950766913168145 -0.02752062870253975 0.004610424320174079 -6.9133886061744e-05
3900000000.0 0.004620764813977453 -7.335905644848822e-05 0.9950418950774986 -0.028240640571188337 0.9950416822803448 -0.028240628753124986 0.004620778319485485 -7.339620319572613e-05
4000000000.0 0.0046313414999958925 -7.780299762966352e-05 0.9950060647724511 -0.028960328484440852 0.9950058521241034 -0.02896031635009612 0.004631354256125894 -7.784085518639158e-05
4100000000.0 0.004642136713233733 -8.24329659667184e-05 0.9949694196883483 -0.029679698032113826 0.9949692071934298 -0.029679685580758557 0.004642148706564024 -8.247151705894609e-05
4200000000.0 0.004653146966495787 -8.725256585288997e-05 0.9949319662776217 -0.030398743448678656 0.9949317539408118 -0.03039873067959742 0.004653158183995869 -8.72917929056747e-05
4300000000.0 0.004664368710915026 -9.226532956654877e-05 0.9948937110962026 -0.03111745911800777 0.994893498922235 -0.031117446030502382 0.00466437913994927 -9.23052147131412e-05
4400000000.0 0.004675798337581772 -9.747471613797582e-05 0.9948546607998304 -0.03183583957550201 0.9948544487934945 -0.03183582616889263 0.0046758079659172495 -9.751524122880556e-05
4500000000.0 0.004687432179197399 -0.00010288411025616799 0.9948148221403136 -0.03255387951012025 0.9948146103064535 -0.03255386578374808 0.0046874409950098195 -0.00010292525686801169
4600000000.0 0.004699266511747727 -0.00010849682121634464 0.9947742019617504 -0.03327157376631176 0.9947739903052664 -0.033271559719540815 0.004699274503626368 -0.00010853857066229019
4700000000.0 0.004711297556194412 -0.00011431608190812276 0.9947328071967098 -0.03398891734584956 0.9947325957225577 -0.033988902978069016 0.004711304713147783 -0.00011435841524673263
4800000000.0 0.0047235214801869185 -0.00012034504784518916 0.9946906448623773 -0.0347059054095644 0.9946904335755685 -0.03470589072019073 0.004723527791649082 -0.00012038794588994554
4900000000.0 0.004735934399790659 -0.0001265867962365576 0.9946477220566639 -0.035422533278978645 0.9946475109622644 -0.035422518267457924 0.004735939855625605 -0.00012663023956579808
5000000000.0 0.004748532381231117 -0.00013304432509878456 0.9946040459542865 -0.03613879643784035 0.9946038350574181 -0.03613878110365025 0.004748536971737893 -0.0001330882940657426
5100000000.0 0.004761311442653445 -0.00013972055241188194 0.9945596238028191 -0.036854690533554606 0.9945594131086585 -0.036854674876206625 0.0047613151585707576 -0.0001397650271544059
5200000000.0 0.004774267555895719 -0.00014661831531631077 0.9945144629187197 -0.03757021137851487 0.994514252432497 -0.03757019539755605 0.00477427038840664 -0.0001466632757670395
5300000000.0 0.0047873966482760546 -0.0001537403693521772 0.9944685706833299 -0.03828535495133163 0.9944683604103306 -0.03828533864634728 0.004787398589010776 -0.0001537857952487028
5400000000.0 0.004800694604388659 -0.00016108938774257592 0.9944219545388618 -0.03900011739795846 0.9944217444844238 -0.0390001007685745 0.004800695645430627 -0.00016113525863749136
5500000000.0 0.004814157267914766 -0.0001686679607173918 0.994374621984361 -0.039714495032716776 0.994374412153875 -0.03971447807860157 0.0048141574018028275 -0.00016871425598912317
5600000000.0 0.004827780443439558 -0.00017647859488258328 0.994326580571657 -0.04042848433921882 0.9943263709705678 -0.04042846706008426 0.004827779663172316 -0.00017652529374483954
5700000000.0 0.0048415598982788485 -0.00018452371262980474 0.9942778379013059 -0.04114208197118396 0.9942776285351079 -0.04114206436678983 0.0048415581973171974 -0.00018457079414296347
5800000000.0 0.0048554913643139895 -0.00019280565159058582 0.9942284016185166 -0.04185528475315886 0.9942281924927555 -0.041855266823312816 0.004855488736584349 -0.00019285309467175244
5900000000.0 0.0048695705398313395 -0.00020132666413223796 0.9941782794090751 -0.04256808968112977 0.994178070529348 -0.04256807142569043 0.004869566979728763 -0.00020137444756573714
6000000000.0 0.0048837930913682385 -0.00021008891689778392 0.9941274789952672 -0.04328049392303578 0.994127270367218 -0.04328047534191529 0.0048837885937588555 -0.00021013701934602866
6100000000.0 0.004898154655563548 -0.00021909449038801438 0.9940760081317943 -0.043992494819179745 0.9940757997611165 -0.043992475912344384 0.004898149215786097 -0.00021914289040198182
6200000000.0 0.00491265084100899 -0.00022834537858553886 0.9940238746016932 -0.04470408988253688 0.994023666494128 -0.04470407065001005 0.004912644454877846 -0.00022839405461551739
6300000000.0 0.004927277230105904 -0.00023784348862325384 0.9939710862122647 -0.04541527679896253 0.9939708783735977 -0.04541525724082688 0.004927269893911584 -0.00023789241902982092
6400000000.0 0.0049420293809191536 -0.0002475906404931116 0.9939176507910014 -0.04612605342730028 0.9939174432270642 -0.04612603354369873 0.004942021091431892 -0.0002476398035572644
6500000000.0 0.004956902829035605 -0.00025758856679912614 0.993863576181529 -0.0468364177993885 0.9938633688981964 -0.046836397590527164 0.004956893583504232 -0.0002576379407334923
6600000000.0 0.0049718930894168826 -0.00026783891255011946 0.9938088702395618 -0.04754636811996854 0.9938086632427504 -0.047546347586118726 0.004971882885571269 -0.0002678884755099731
6700000000.0 0.004986995658253059 -0.00027834323499745613 0.9937535408288647 -0.04825590276649465 0.9937533341245337 -0.048255881907992904 0.004986984494304727 -0.0002783929650910149
6800000000.0 0.005002206014812305 -0.0002891030035110007 0.9936975958172444 -0.04896502028884274 0.9936973894113903 -0.04896499910609572 0.005002193889455639 -0.0002891528788103793
6900000000.0 0.005017519623288492 -0.0003001195994984078 0.9936410430725455 -0.04967371940892784 0.9936408369712053 -0.049673697902410725 0.005017506535698903 -0.00030016959805076004
7000000000.0 0.0050329319346386755 -0.0003113943163656242 0.993583890458681 -0.05038199902021817 0.9935836846679265 -0.050381977190479446 0.005032917884475312 -0.00031144441620330806
7100000000.0 0.005048438388420913 -0.00032292835951602 0.9935261458316801 -0.05108985818716002 0.993525940357619 -0.05108983603482139 0.005048423375824646 -0.00032297853866775864
7200000000.0 0.005064034414621726 -0.00033472284639256023 0.9934678170357635 -0.05179729614450511 0.9934676118845364 -0.05179727367026332 0.005064018440214988 -0.00033477308289434315
7300000000.0 0.0050797154354750825 -0.00034677880655776286 0.9934089118994489 -0.05250431229654364 0.9934087070772283 -0.052504289501172814 0.005079698500362368 -0.00034682907846322983
7400000000.0 0.005095476867276276 -0.00035909718181456764 0.9933494382316871 -0.053210906216249264 0.9933492337446758 -0.05321088310060187 0.005095458973041357 -0.00035914746720604694
7500000000.0 0.005111314122181252 -0.0003716788263657548 0.9932894038180305 -0.05391707764432836 0.9932891996724594 -0.05391705420933715 0.005111295270888101 -0.00037172910336454935
7600000000.0 0.0051272226100007685 -0.0003845245070121718 0.993228816416838 -0.05462282648818337 0.9932286126189644 -0.054622802734862266 0.005127202804190506 -0.0003845747537892019
7700000000.0 0.0051431977399790905 -0.00039763490338942117 0.9931676837555174 -0.0553281528207839 0.9931674803116224 -0.05532812875023038 0.00514317698266905 -0.00039768509817648154
7800000000.0 0.005159234922562913 -0.00041101060824219463 0.9931060135268062 -0.05603305687945446 0.993105810443194 -0.05603303249285005 0.0051592132172446434 -0.00041106072934163926
7900000000.0 0.005175329571155415 -0.0004246521277368669 0.9930438133850967 -0.05673753906457256 0.9930436106680921 -0.05673751436318516 0.005175306921793007 -0.00042470215353261853
8000000000.0 0.005191477103858584 -0.0004385598818090794 0.9929810909428001 -0.057441599938187225 0.9929808885987472 -0.05744157492337033 0.005191453514885896 -0.0004386097907766044
8100000000.0 0.005207672945200425 -0.00045273420454917425 0.9929178537667642 -0.058145240222546975 0.992917651802022 -0.05814521489574368 0.005207648421518793 -0.00045278397526654044
8200000000.0 0.005223912527845863 -0.0004671753446232312 0.9928541093747282 -0.0588484607985553 0.9928539077956711 -0.05884843516129828 0.005223887074820657 -0.00046722495578031944
8300000000.0 0.00524019129429116 -0.00048188346572926603 0.992789865231836 -0.0595512627041393 0.9927896640448506 -0.0595512367580505 0.005240164917750104 -0.0004819328961386869
8400000000.0 0.005256504698545616 -0.0004968586470866402 0.992725128747195 -0.06025364713254285 0.9927249279586782 -0.060253620879336625 0.0052564774047740995 -0.0004969078756939611
8500000000.0 0.005272848207788688 -0.000512100883963355 0.9926599072704902 -0.06095561543054278 0.9926597068868465 -0.06095558887202585 0.005272820003527452 -0.0005121498898566221
8600000000.0 0.0052892173040174255 -0.0005276100882313795 0.9925942080886523 -0.061657169096589366 0.9925940081162926 -0.06165714223466236 0.0052891881964577695 -0.0005276588506517547
8700000000.0 0.005305607485667145 -0.000543386088960695 0.9925280384225821 -0.062358309778873716 0.9925278388679196 -0.0623582826155311 0.005305577482448795 -0.0005434345873111847
8800000000.0 0.005322014269217847 -0.000559428633041046 0.9924614054239307 -0.06305903927332372 0.9924612062933799 -0.06305901181065568 0.005321983378422882 -0.0005594768468974325
8900000000.0 0.0053384331907785545 -0.0005757373858383839 0.9923943161719434 -0.06375935952152953 0.9923941174719186 -0.06375933176172152 0.005338401420928464 -0.000575785294958131
9000000000.0 0.005354859807651465 -0.0005923119318800072 0.9923267776703577 -0.06445927260860018 0.9923265794072691 -0.06445924455393558 0.005354827167702161 -0.0005923595162117153
9100000000.0 0.005371289699874211 -0.0006091517755727138 0.992258796844372 -0.06515878076095703 0.9922585990246241 -0.06515875241381519 0.005371256199211254 -0.0006091990152658982
9200000000.0 0.005387718471740606 -0.0006262563419473027 0.9921903805376681 -0.06585788634405726 0.9921901831676574 -0.06585785770691532 0.005387684120174728 -0.0006263032173617735
9300000000.0 0.005404141753299834 -0.0006436249774363571 0.9921215355095079 -0.06655659186005858 0.9921213385956194 -0.06655656293549289 0.005404106561060739 -0.0006436714691508662
9400000000.0 0.00542055520183073 -0.000661256950676237 0.9920522684318874 -0.06725489994542297 0.9920520719804932 -0.06725487073610822 0.005420519179563716 -0.0006613030394981248
9500000000.0 0.0054369545032948545 -0.0006791514533397973 0.9919825858867651 -0.06795281336845961 0.9919823899042229 -0.06795278387716946 0.005436917662053255 -0.0006791971203133675
9600000000.0 0.005453335373764535 -0.0006973076009950375 0.9919124943633547 -0.06865033502681138 0.9919122988560027 -0.06865030525641913 0.005453297725005067 -0.0006973528274104588
9700000000.0 0.005469693560825554 -0.0007157244339899053 0.9918420002554875 -0.06934746794488783 0.9918418052296447 -0.06934743789836594 0.0054696551164025225 -0.0007157692013921451
9800000000.0 0.005486024844958049 -0.0007344009183630894 0.9917711098590478 -0.07004421527124119 0.9917709153210094 -0.07004418495166223 0.005485985617116837 -0.0007344452085598655
9900000000.0 0.005502325040888824 -0.000753335946779867 0.9916998293694765 -0.07074058027589479 0.9916996353255125 -0.07074054968643151 0.005502285042260042 -0.0007533797418507663
10000000000.0 0.005518589998919942 -0.0007725283394924505 0.991628164879349 -0.0714365663476217 0.9916279713357024 -0.07143653549154584 0.005518549242513062 -0.0007725716217958865
10100000000.0 0.005534815606231206 -0.0007919768453224578 0.9915561223760264 -0.07213217699117241 0.9915559293389092 -0.07213214587185669 0.0055347741054274655 -0.0007920195975055978
10200000000.0 0.00555099778815582 -0.0008116801426689964 0.9914837077393798 -0.07282741582446281 0.9914835152149708 -0.0728273844453787 0.0055509555567019855 -0.0008117223476731823
10300000000.0 0.005567132509428447 -0.0008316368405351389 0.9914109267395896 -0.07352228657571366 0.9914107347340322 -0.07352225494043298 0.005567089561429957 -0.0008316784816061049
10400000000.0 0.0055832157754097216 -0.0008518454795801344 0.9913377850350211 -0.07421679308055076 0.9913375935544214 -0.07421676119274387 0.00558317212532302 -0.0008518865402737089
10500000000.0 0.005599243633278882 -0.0008723045331886924 0.9912642881701742 -0.07491093927906786 0.9912640972205984 -0.07491090714250494 0.0055991992959046645 -0.0008723449973791235
10600000000.0 0.005615212173200528 -0.0008930124085624032 0.9911904415737138 -0.07560472921284846 0.9911902511611848 -0.07560469683139695 0.005615167163676777 -0.0008930522604491871
10700000000.0 0.005631117529465962 -0.000913967447829138 0.9911162505565728 -0.07629816702195209 0.9911160606870677 -0.07629813439957936 0.005631071863259592 -0.000914006671944251
10800000000.0 0.005646955881603347 -0.000935167929172252 0.9910417203101363 -0.07699125694187328 0.9910415309895853 -0.07699122408264321 0.005646909574502795 -0.0009352065103869442
