#   Hz   S  RI   R   50
!
0.000000e+00 2.974913e-03 0.000000e+00 9.970445e-01 0.000000e+00 9.971185e-01 0.000000e+00 3.052104e-03 0.000000e+00
1.000000e+08 2.974988e-03 -1.839943e-06 9.970443e-01 -5.089791e-04 9.971183e-01 -5.103852e-04 3.052169e-03 -3.207969e-06
2.000000e+08 2.975213e-03 -3.681982e-06 9.970436e-01 -1.017956e-03 9.971176e-01 -1.020767e-03 3.052366e-03 -6.417620e-06
3.000000e+08 2.975587e-03 -5.528216e-06 9.970425e-01 -1.526927e-03 9.971164e-01 -1.531143e-03 3.052693e-03 -9.630637e-06
4.000000e+08 2.976112e-03 -7.380740e-06 9.970410e-01 -2.035890e-03 9.971148e-01 -2.041509e-03 3.053150e-03 -1.284870e-05
5.000000e+08 2.976786e-03 -9.241648e-06 9.970391e-01 -2.544842e-03 9.971127e-01 -2.551862e-03 3.053739e-03 -1.607349e-05
6.000000e+08 2.977610e-03 -1.111303e-05 9.970367e-01 -3.053782e-03 9.971102e-01 -3.062200e-03 3.054458e-03 -1.930668e-05
7.000000e+08 2.978583e-03 -1.299698e-05 9.970338e-01 -3.562705e-03 9.971072e-01 -3.572518e-03 3.055307e-03 -2.254996e-05
8.000000e+08 2.979706e-03 -1.489559e-05 9.970306e-01 -4.071610e-03 9.971037e-01 -4.082814e-03 3.056287e-03 -2.580499e-05
9.000000e+08 2.980977e-03 -1.681093e-05 9.970269e-01 -4.580494e-03 9.970998e-01 -4.593084e-03 3.057397e-03 -2.907346e-05
1.000000e+09 2.982397e-03 -1.874508e-05 9.970228e-01 -5.089354e-03 9.970954e-01 -5.103326e-03 3.058637e-03 -3.235703e-05
1.100000e+09 2.983965e-03 -2.070013e-05 9.970182e-01 -5.598187e-03 9.970906e-01 -5.613536e-03 3.060006e-03 -3.565736e-05
1.200000e+09 2.985682e-03 -2.267814e-05 9.970132e-01 -6.106992e-03 9.970853e-01 -6.123712e-03 3.061505e-03 -3.897613e-05
1.300000e+09 2.987546e-03 -2.468117e-05 9.970078e-01 -6.615764e-03 9.970795e-01 -6.633849e-03 3.063133e-03 -4.231499e-05
1.400000e+09 2.989558e-03 -2.671129e-05 9.970019e-01 -7.124503e-03 9.970733e-01 -7.143945e-03 3.064890e-03 -4.567559e-05
1.500000e+09 2.991716e-03 -2.877054e-05 9.969956e-01 -7.633205e-03 9.970666e-01 -7.653997e-03 3.066776e-03 -4.905959e-05
1.600000e+09 2.994021e-03 -3.086098e-05 9.969889e-01 -8.141867e-03 9.970594e-01 -8.164001e-03 3.068790e-03 -5.246863e-05
1.700000e+09 2.996473e-03 -3.298463e-05 9.969817e-01 -8.650487e-03 9.970518e-01 -8.673955e-03 3.070931e-03 -5.590436e-05
1.800000e+09 2.999069e-03 -3.514353e-05 9.969741e-01 -9.159063e-03 9.970438e-01 -9.183855e-03 3.073201e-03 -5.936840e-05
1.900000e+09 3.001811e-03 -3.733971e-05 9.969661e-01 -9.667591e-03 9.970353e-01 -9.693699e-03 3.075597e-03 -6.286239e-05
2.000000e+09 3.004697e-03 -3.957516e-05 9.969577e-01 -1.017607e-02 9.970263e-01 -1.020348e-02 3.078121e-03 -6.638796e-05
2.100000e+09 3.007727e-03 -4.185191e-05 9.969488e-01 -1.068450e-02 9.970169e-01 -1.071320e-02 3.080770e-03 -6.994672e-05
2.200000e+09 3.010900e-03 -4.417194e-05 9.969395e-01 -1.119287e-02 9.970070e-01 -1.122286e-02 3.083545e-03 -7.354027e-05
2.300000e+09 3.014216e-03 -4.653723e-05 9.969298e-01 -1.170118e-02 9.969967e-01 -1.173245e-02 3.086446e-03 -7.717023e-05
2.400000e+09 3.017673e-03 -4.894976e-05 9.969196e-01 -1.220944e-02 9.969859e-01 -1.224196e-02 3.089472e-03 -8.083818e-05
2.500000e+09 3.021272e-03 -5.141149e-05 9.969091e-01 -1.271763e-02 9.969747e-01 -1.275140e-02 3.092621e-03 -8.454572e-05
2.600000e+09 3.025012e-03 -5.392437e-05 9.968981e-01 -1.322576e-02 9.969631e-01 -1.326077e-02 3.095895e-03 -8.829442e-05
2.700000e+09 3.028891e-03 -5.649034e-05 9.968866e-01 -1.373382e-02 9.969509e-01 -1.377005e-02 3.099292e-03 -9.208585e-05
2.800000e+09 3.032909e-03 -5.911133e-05 9.968748e-01 -1.424181e-02 9.969384e-01 -1.427925e-02 3.102811e-03 -9.592159e-05
2.900000e+09 3.037065e-03 -6.178924e-05 9.968625e-01 -1.474973e-02 9.969254e-01 -1.478836e-02 3.106452e-03 -9.980317e-05
3.000000e+09 3.041359e-03 -6.452598e-05 9.968498e-01 -1.525758e-02 9.969119e-01 -1.529738e-02 3.110215e-03 -1.037322e-04
3.100000e+09 3.045788e-03 -6.732343e-05 9.968367e-01 -1.576534e-02 9.968981e-01 -1.580632e-02 3.114099e-03 -1.077101e-04
3.200000e+09 3.050354e-03 -7.018347e-05 9.968232e-01 -1.627303e-02 9.968837e-01 -1.631515e-02 3.118102e-03 -1.117384e-04
3.300000e+09 3.055054e-03 -7.310795e-05 9.968093e-01 -1.678064e-02 9.968690e-01 -1.682389e-02 3.122225e-03 -1.158187e-04
3.400000e+09 3.059887e-03 -7.609872e-05 9.967949e-01 -1.728816e-02 9.968538e-01 -1.733253e-02 3.126466e-03 -1.199525e-04
3.500000e+09 3.064854e-03 -7.915759e-05 9.967802e-01 -1.779560e-02 9.968381e-01 -1.784107e-02 3.130825e-03 -1.241413e-04
3.600000e+09 3.069952e-03 -8.228639e-05 9.967650e-01 -1.830295e-02 9.968221e-01 -1.834950e-02 3.135302e-03 -1.283865e-04
3.700000e+09 3.075180e-03 -8.548691e-05 9.967494e-01 -1.881021e-02 9.968056e-01 -1.885782e-02 3.139895e-03 -1.326896e-04
3.800000e+09 3.080539e-03 -8.876092e-05 9.967334e-01 -1.931737e-02 9.967886e-01 -1.936603e-02 3.144603e-03 -1.370521e-04
3.900000e+09 3.086026e-03 -9.211018e-05 9.967170e-01 -1.982444e-02 9.967713e-01 -1.987413e-02 3.149426e-03 -1.414754e-04
4.000000e+09 3.091640e-03 -9.553645e-05 9.967002e-01 -2.033142e-02 9.967535e-01 -2.038211e-02 3.154363e-03 -1.459609e-04
4.100000e+09 3.097380e-03 -9.904143e-05 9.966829e-01 -2.083829e-02 9.967353e-01 -2.088997e-02 3.159413e-03 -1.505101e-04
4.200000e+09 3.103246e-03 -1.026269e-04 9.966653e-01 -2.134506e-02 9.967166e-01 -2.139771e-02 3.164575e-03 -1.551244e-04
4.300000e+09 3.109236e-03 -1.062944e-04 9.966473e-01 -2.185173e-02 9.966976e-01 -2.190533e-02 3.169849e-03 -1.598052e-04
4.400000e+09 3.115348e-03 -1.100457e-04 9.966288e-01 -2.235829e-02 9.966781e-01 -2.241282e-02 3.175233e-03 -1.645538e-04
4.500000e+09 3.121582e-03 -1.138825e-04 9.966100e-01 -2.286474e-02 9.966582e-01 -2.292019e-02 3.180727e-03 -1.693717e-04
4.600000e+09 3.127936e-03 -1.178064e-04 9.965908e-01 -2.337109e-02 9.966379e-01 -2.342742e-02 3.186329e-03 -1.742601e-04
4.700000e+09 3.134410e-03 -1.218189e-04 9.965711e-01 -2.387732e-02 9.966171e-01 -2.393452e-02 3.192038e-03 -1.792204e-04
4.800000e+09 3.141001e-03 -1.259217e-04 9.965511e-01 -2.438343e-02 9.965960e-01 -2.444148e-02 3.197855e-03 -1.842540e-04
4.900000e+09 3.147709e-03 -1.301164e-04 9.965307e-01 -2.488944e-02 9.965744e-01 -2.494830e-02 3.203777e-03 -1.893621e-04
5.000000e+09 3.154532e-03 -1.344044e-04 9.965099e-01 -2.539532e-02 9.965525e-01 -2.545498e-02 3.209803e-03 -1.945461e-04
5.100000e+09 3.161468e-03 -1.387874e-04 9.964887e-01 -2.590108e-02 9.965301e-01 -2.596153e-02 3.215934e-03 -1.998072e-04
5.200000e+09 3.168517e-03 -1.432668e-04 9.964671e-01 -2.640672e-02 9.965073e-01 -2.646792e-02 3.222166e-03 -2.051468e-04
5.300000e+09 3.175677e-03 -1.478441e-04 9.964451e-01 -2.691224e-02 9.964842e-01 -2.697417e-02 3.228501e-03 -2.105659e-04
5.400000e+09 3.182947e-03 -1.525209e-04 9.964227e-01 -2.741763e-02 9.964606e-01 -2.748027e-02 3.234935e-03 -2.160660e-04
5.500000e+09 3.190325e-03 -1.572984e-04 9.964000e-01 -2.792289e-02 9.964366e-01 -2.798622e-02 3.241469e-03 -2.216481e-04
5.600000e+09 3.197809e-03 -1.621782e-04 9.963768e-01 -2.842803e-02 9.964123e-01 -2.849202e-02 3.248102e-03 -2.273135e-04
5.700000e+09 3.205399e-03 -1.671616e-04 9.963533e-01 -2.893303e-02 9.963875e-01 -2.899766e-02 3.254831e-03 -2.330635e-04
5.800000e+09 3.213093e-03 -1.722500e-04 9.963294e-01 -2.943790e-02 9.963624e-01 -2.950314e-02 3.261656e-03 -2.388991e-04
5.900000e+09 3.220889e-03 -1.774447e-04 9.963051e-01 -2.994264e-02 9.963368e-01 -3.000847e-02 3.268577e-03 -2.448215e-04
6.000000e+09 3.228786e-03 -1.827472e-04 9.962805e-01 -3.044723e-02 9.963109e-01 -3.051363e-02 3.275591e-03 -2.508318e-04
6.100000e+09 3.236782e-03 -1.881586e-04 9.962555e-01 -3.095170e-02 9.962846e-01 -3.101863e-02 3.282697e-03 -2.569312e-04
6.200000e+09 3.244875e-03 -1.936803e-04 9.962301e-01 -3.145602e-02 9.962579e-01 -3.152347e-02 3.289895e-03 -2.631208e-04
6.300000e+09 3.253065e-03 -1.993135e-04 9.962043e-01 -3.196020e-02 9.962309e-01 -3.202814e-02 3.297183e-03 -2.694016e-04
6.400000e+09 3.261349e-03 -2.050594e-04 9.961782e-01 -3.246424e-02 9.962034e-01 -3.253265e-02 3.304560e-03 -2.757747e-04
6.500000e+09 3.269727e-03 -2.109193e-04 9.961517e-01 -3.296813e-02 9.961756e-01 -3.303698e-02 3.312024e-03 -2.822412e-04
6.600000e+09 3.278195e-03 -2.168943e-04 9.961248e-01 -3.347188e-02 9.961474e-01 -3.354114e-02 3.319575e-03 -2.888021e-04
6.700000e+09 3.286753e-03 -2.229855e-04 9.960976e-01 -3.397548e-02 9.961189e-01 -3.404513e-02 3.327211e-03 -2.954584e-04
6.800000e+09 3.295400e-03 -2.291942e-04 9.960700e-01 -3.447893e-02 9.960900e-01 -3.454894e-02 3.334931e-03 -3.022111e-04
6.900000e+09 3.304132e-03 -2.355213e-04 9.960421e-01 -3.498224e-02 9.960607e-01 -3.505258e-02 3.342734e-03 -3.090611e-04
7.000000e+09 3.312950e-03 -2.419680e-04 9.960138e-01 -3.548539e-02 9.960311e-01 -3.555604e-02 3.350618e-03 -3.160095e-04
7.100000e+09 3.321850e-03 -2.485354e-04 9.959852e-01 -3.598839e-02 9.960011e-01 -3.605933e-02 3.358582e-03 -3.230572e-04
7.200000e+09 3.330832e-03 -2.552244e-04 9.959562e-01 -3.649123e-02 9.959707e-01 -3.656243e-02 3.366625e-03 -3.302050e-04
7.300000e+09 3.339893e-03 -2.620360e-04 9.959268e-01 -3.699392e-02 9.959400e-01 -3.706535e-02 3.374746e-03 -3.374539e-04
7.400000e+09 3.349032e-03 -2.689712e-04 9.958971e-01 -3.749646e-02 9.959089e-01 -3.756809e-02 3.382942e-03 -3.448048e-04
7.500000e+09 3.358248e-03 -2.760310e-04 9.958671e-01 -3.799883e-02 9.958775e-01 -3.807064e-02 3.391213e-03 -3.522585e-04
7.600000e+09 3.367537e-03 -2.832163e-04 9.958367e-01 -3.850105e-02 9.958458e-01 -3.857301e-02 3.399558e-03 -3.598158e-04
7.700000e+09 3.376900e-03 -2.905279e-04 9.958060e-01 -3.900311e-02 9.958137e-01 -3.907519e-02 3.407975e-03 -3.674777e-04
7.800000e+09 3.386333e-03 -2.979668e-04 9.957749e-01 -3.950500e-02 9.957812e-01 -3.957719e-02 3.416462e-03 -3.752448e-04
7.900000e+09 3.395836e-03 -3.055337e-04 9.957436e-01 -4.000674e-02 9.957485e-01 -4.007899e-02 3.425019e-03 -3.831181e-04
8.000000e+09 3.405406e-03 -3.132295e-04 9.957118e-01 -4.050831e-02 9.957153e-01 -4.058061e-02 3.433644e-03 -3.910981e-04
8.100000e+09 3.415041e-03 -3.210550e-04 9.956798e-01 -4.100972e-02 9.956819e-01 -4.108204e-02 3.442335e-03 -3.991858e-04
8.200000e+09 3.424740e-03 -3.290109e-04 9.956474e-01 -4.151096e-02 9.956481e-01 -4.158327e-02 3.451092e-03 -4.073817e-04
8.300000e+09 3.434501e-03 -3.370979e-04 9.956146e-01 -4.201203e-02 9.956140e-01 -4.208431e-02 3.459912e-03 -4.156867e-04
8.400000e+09 3.444323e-03 -3.453168e-04 9.955816e-01 -4.251294e-02 9.955796e-01 -4.258516e-02 3.468795e-03 -4.241013e-04
8.500000e+09 3.454202e-03 -3.536682e-04 9.955482e-01 -4.301368e-02 9.955449e-01 -4.308582e-02 3.477738e-03 -4.326263e-04
8.600000e+09 3.464139e-03 -3.621527e-04 9.955145e-01 -4.351426e-02 9.955098e-01 -4.358628e-02 3.486741e-03 -4.412623e-04
8.700000e+09 3.474130e-03 -3.707711e-04 9.954805e-01 -4.401466e-02 9.954744e-01 -4.408654e-02 3.495802e-03 -4.500099e-04
8.800000e+09 3.484173e-03 -3.795238e-04 9.954462e-01 -4.451489e-02 9.954387e-01 -4.458661e-02 3.504920e-03 -4.588698e-04
8.900000e+09 3.494268e-03 -3.884114e-04 9.954116e-01 -4.501496e-02 9.954027e-01 -4.508648e-02 3.514093e-03 -4.678425e-04
9.000000e+09 3.504412e-03 -3.974345e-04 9.953766e-01 -4.551485e-02 9.953664e-01 -4.558615e-02 3.523320e-03 -4.769285e-04
9.100000e+09 3.514603e-03 -4.065936e-04 9.953414e-01 -4.601457e-02 9.953298e-01 -4.608563e-02 3.532599e-03 -4.861284e-04
9.200000e+09 3.524840e-03 -4.158892e-04 9.953058e-01 -4.651411e-02 9.952929e-01 -4.658491e-02 3.541929e-03 -4.954428e-04
9.300000e+09 3.535120e-03 -4.253217e-04 9.952699e-01 -4.701348e-02 9.952557e-01 -4.708399e-02 3.551308e-03 -5.048721e-04
9.400000e+09 3.545443e-03 -4.348915e-04 9.952337e-01 -4.751268e-02 9.952182e-01 -4.758287e-02 3.560735e-03 -5.144168e-04
9.500000e+09 3.555805e-03 -4.445991e-04 9.951972e-01 -4.801171e-02 9.951804e-01 -4.808154e-02 3.570209e-03 -5.240774e-04
9.600000e+09 3.566205e-03 -4.544447e-04 9.951605e-01 -4.851056e-02 9.951423e-01 -4.858002e-02 3.579727e-03 -5.338543e-04
9.700000e+09 3.576641e-03 -4.644288e-04 9.951234e-01 -4.900923e-02 9.951039e-01 -4.907830e-02 3.589290e-03 -5.437480e-04
9.800000e+09 3.587112e-03 -4.745517e-04 9.950860e-01 -4.950773e-02 9.950652e-01 -4.957638e-02 3.598894e-03 -5.537587e-04
9.900000e+09 3.597615e-03 -4.848137e-04 9.950484e-01 -5.000605e-02 9.950263e-01 -5.007426e-02 3.608538e-03 -5.638870e-04
1.000000e+10 3.608149e-03 -4.952149e-04 9.950104e-01 -5.050420e-02 9.949870e-01 -5.057194e-02 3.618222e-03 -5.741332e-04
1.010000e+10 3.618711e-03 -5.057557e-04 9.949722e-01 -5.100217e-02 9.949475e-01 -5.106941e-02 3.627943e-03 -5.844975e-04
1.020000e+10 3.629301e-03 -5.164363e-04 9.949336e-01 -5.149996e-02 9.949077e-01 -5.156669e-02 3.637701e-03 -5.949804e-04
1.030000e+10 3.639915e-03 -5.272568e-04 9.948948e-01 -5.199757e-02 9.948677e-01 -5.206377e-02 3.647493e-03 -6.055820e-04
1.040000e+10 3.650553e-03 -5.382174e-04 9.948557e-01 -5.249501e-02 9.948273e-01 -5.256064e-02 3.657318e-03 -6.163028e-04
1.050000e+10 3.661212e-03 -5.493182e-04 9.948164e-01 -5.299227e-02 9.947867e-01 -5.305731e-02 3.667175e-03 -6.271429e-04
1.060000e+10 3.671890e-03 -5.605593e-04 9.947767e-01 -5.348935e-02 9.947459e-01 -5.355378e-02 3.677062e-03 -6.381026e-04
1.070000e+10 3.682586e-03 -5.719408e-04 9.947368e-01 -5.398625e-02 9.947048e-01 -5.405006e-02 3.686978e-03 -6.491821e-04
1.080000e+10 3.693298e-03 -5.834627e-04 9.946966e-01 -5.448298e-02 9.946634e-01 -5.454613e-02 3.696921e-03 -6.603816e-04
1.090000e+10 3.704023e-03 -5.951251e-04 9.946562e-01 -5.497953e-02 9.946217e-01 -5.504200e-02 3.706889e-03 -6.717013e-04
1.100000e+10 3.714761e-03 -6.069280e-04 9.946154e-01 -5.547590e-02 9.945799e-01 -5.553767e-02 3.716882e-03 -6.831413e-04
1.110000e+10 3.725509e-03 -6.188712e-04 9.945744e-01 -5.597209e-02 9.945377e-01 -5.603314e-02 3.726897e-03 -6.947017e-04
1.120000e+10 3.736265e-03 -6.309548e-04 9.945332e-01 -5.646810e-02 9.944953e-01 -5.652841e-02 3.736934e-03 -7.063827e-04
1.130000e+10 3.747028e-03 -6.431786e-04 9.944917e-01 -5.696394e-02 9.944527e-01 -5.702349e-02 3.746991e-03 -7.181844e-04
1.140000e+10 3.757796e-03 -6.555427e-04 9.944499e-01 -5.745960e-02 9.944098e-01 -5.751836e-02 3.757066e-03 -7.301068e-04
1.150000e+10 3.768567e-03 -6.680467e-04 9.944078e-01 -5.795508e-02 9.943667e-01 -5.801304e-02 3.767157e-03 -7.421500e-04
1.160000e+10 3.779339e-03 -6.806906e-04 9.943656e-01 -5.845038e-02 9.943233e-01 -5.850752e-02 3.777264e-03 -7.543140e-04
1.170000e+10 3.790110e-03 -6.934741e-04 9.943230e-01 -5.894551e-02 9.942797e-01 -5.900180e-02 3.787385e-03 -7.665989e-04
1.180000e+10 3.800879e-03 -7.063971e-04 9.942802e-01 -5.944045e-02 9.942359e-01 -5.949589e-02 3.797518e-03 -7.790046e-04
1.190000e+10 3.811643e-03 -7.194593e-04 9.942372e-01 -5.993523e-02 9.941918e-01 -5.998978e-02 3.807663e-03 -7.915311e-04
1.200000e+10 3.822402e-03 -7.326605e-04 9.941939e-01 -6.042982e-02 9.941476e-01 -6.048348e-02 3.817816e-03 -8.041784e-04
1.210000e+10 3.833153e-03 -7.460003e-04 9.941504e-01 -6.092424e-02 9.941030e-01 -6.097698e-02 3.827978e-03 -8.169465e-04
1.220000e+10 3.843894e-03 -7.594785e-04 9.941066e-01 -6.141849e-02 9.940583e-01 -6.147029e-02 3.838146e-03 -8.298351e-04
1.230000e+10 3.854624e-03 -7.730947e-04 9.940626e-01 -6.191255e-02 9.940133e-01 -6.196341e-02 3.848320e-03 -8.428443e-04
1.240000e+10 3.865341e-03 -7.868486e-04 9.940183e-01 -6.240645e-02 9.939682e-01 -6.245633e-02 3.858497e-03 -8.559740e-04
1.250000e+10 3.876044e-03 -8.007398e-04 9.939738e-01 -6.290017e-02 9.939228e-01 -6.294906e-02 3.868677e-03 -8.692239e-04
1.260000e+10 3.886730e-03 -8.147678e-04 9.939291e-01 -6.339371e-02 9.938772e-01 -6.344161e-02 3.878857e-03 -8.825939e-04
1.270000e+10 3.897397e-03 -8.289323e-04 9.938842e-01 -6.388708e-02 9.938313e-01 -6.393396e-02 3.889036e-03 -8.960839e-04
1.280000e+10 3.908045e-03 -8.432327e-04 9.938390e-01 -6.438028e-02 9.937853e-01 -6.442613e-02 3.899214e-03 -9.096936e-04
1.290000e+10 3.918672e-03 -8.576687e-04 9.937936e-01 -6.487331e-02 9.937391e-01 -6.491810e-02 3.909388e-03 -9.234229e-04
1.300000e+10 3.929275e-03 -8.722397e-04 9.937479e-01 -6.536617e-02 9.936926e-01 -6.540990e-02 3.919558e-03 -9.372715e-04
1.310000e+10 3.939853e-03 -8.869452e-04 9.937021e-01 -6.585885e-02 9.936460e-01 -6.590150e-02 3.929721e-03 -9.512392e-04
1.320000e+10 3.950405e-03 -9.017846e-04 9.936560e-01 -6.635136e-02 9.935991e-01 -6.639292e-02 3.939876e-03 -9.653257e-04
1.330000e+10 3.960928e-03 -9.167575e-04 9.936097e-01 -6.684371e-02 9.935521e-01 -6.688416e-02 3.950023e-03 -9.795308e-04
1.340000e+10 3.971422e-03 -9.318631e-04 9.935632e-01 -6.733588e-02 9.935049e-01 -6.737522e-02 3.960159e-03 -9.938540e-04
1.350000e+10 3.981884e-03 -9.471009e-04 9.935164e-01 -6.782789e-02 9.934574e-01 -6.786610e-02 3.970284e-03 -1.008295e-03
1.360000e+10 3.992313e-03 -9.624703e-04 9.934695e-01 -6.831973e-02 9.934098e-01 -6.835679e-02 3.980395e-03 -1.022854e-03
1.370000e+10 4.002708e-03 -9.779706e-04 9.934223e-01 -6.881140e-02 9.933620e-01 -6.884731e-02 3.990492e-03 -1.037530e-03
1.380000e+10 4.013067e-03 -9.936012e-04 9.933749e-01 -6.930291e-02 9.933140e-01 -6.933765e-02 4.000573e-03 -1.052323e-03
1.390000e+10 4.023387e-03 -1.009361e-03 9.933273e-01 -6.979425e-02 9.932658e-01 -6.982782e-02 4.010636e-03 -1.067232e-03
1.400000e+10 4.033669e-03 -1.025250e-03 9.932795e-01 -7.028543e-02 9.932174e-01 -7.031781e-02 4.020682e-03 -1.082258e-03
1.410000e+10 4.043909e-03 -1.041267e-03 9.932315e-01 -7.077644e-02 9.931688e-01 -7.080763e-02 4.030707e-03 -1.097399e-03
1.420000e+10 4.054108e-03 -1.057412e-03 9.931833e-01 -7.126729e-02 9.931201e-01 -7.129728e-02 4.040711e-03 -1.112655e-03
1.430000e+10 4.064262e-03 -1.073683e-03 9.931349e-01 -7.175798e-02 9.930712e-01 -7.178675e-02 4.050693e-03 -1.128026e-03
1.440000e+10 4.074371e-03 -1.090080e-03 9.930863e-01 -7.224851e-02 9.930221e-01 -7.227606e-02 4.060652e-03 -1.143511e-03
1.450000e+10 4.084434e-03 -1.106602e-03 9.930375e-01 -7.273888e-02 9.929728e-01 -7.276520e-02 4.070585e-03 -1.159111e-03
1.460000e+10 4.094448e-03 -1.123248e-03 9.929885e-01 -7.322909e-02 9.929234e-01 -7.325417e-02 4.080492e-03 -1.174823e-03
1.470000e+10 4.104412e-03 -1.140017e-03 9.929393e-01 -7.371914e-02 9.928737e-01 -7.374298e-02 4.090371e-03 -1.190649e-03
1.480000e+10 4.114325e-03 -1.156909e-03 9.928899e-01 -7.420904e-02 9.928240e-01 -7.423162e-02 4.100222e-03 -1.206586e-03
1.490000e+10 4.124186e-03 -1.173922e-03 9.928404e-01 -7.469878e-02 9.927740e-01 -7.472010e-02 4.110042e-03 -1.222636e-03
1.500000e+10 4.133993e-03 -1.191056e-03 9.927906e-01 -7.518836e-02 9.927239e-01 -7.520843e-02 4.119832e-03 -1.238797e-03
1.510000e+10 4.143745e-03 -1.208310e-03 9.927406e-01 -7.567779e-02 9.926736e-01 -7.569659e-02 4.129588e-03 -1.255068e-03
1.520000e+10 4.153440e-03 -1.225683e-03 9.926905e-01 -7.616707e-02 9.926231e-01 -7.618460e-02 4.139311e-03 -1.271449e-03
1.530000e+10 4.163077e-03 -1.243174e-03 9.926401e-01 -7.665620e-02 9.925725e-01 -7.667245e-02 4.149000e-03 -1.287940e-03
1.540000e+10 4.172655e-03 -1.260782e-03 9.925896e-01 -7.714518e-02 9.925218e-01 -7.716015e-02 4.158652e-03 -1.304540e-03
1.550000e+10 4.182172e-03 -1.278506e-03 9.925389e-01 -7.763401e-02 9.924708e-01 -7.764770e-02 4.168267e-03 -1.321248e-03
1.560000e+10 4.191627e-03 -1.296344e-03 9.924880e-01 -7.812269e-02 9.924198e-01 -7.813509e-02 4.177843e-03 -1.338063e-03
1.570000e+10 4.201020e-03 -1.314297e-03 9.924370e-01 -7.861123e-02 9.923685e-01 -7.862234e-02 4.187380e-03 -1.354986e-03
1.580000e+10 4.210347e-03 -1.332363e-03 9.923857e-01 -7.909962e-02 9.923171e-01 -7.910944e-02 4.196876e-03 -1.372014e-03
1.590000e+10 4.219610e-03 -1.350540e-03 9.923343e-01 -7.958786e-02 9.922656e-01 -7.959639e-02 4.206330e-03 -1.389148e-03
1.600000e+10 4.228805e-03 -1.368829e-03 9.922827e-01 -8.007596e-02 9.922139e-01 -8.008320e-02 4.215742e-03 -1.406388e-03
1.610000e+10 4.237933e-03 -1.387227e-03 9.922309e-01 -8.056393e-02 9.921620e-01 -8.056987e-02 4.225109e-03 -1.423731e-03
1.620000e+10 4.246991e-03 -1.405735e-03 9.921790e-01 -8.105175e-02 9.921100e-01 -8.105640e-02 4.234431e-03 -1.441178e-03
1.630000e+10 4.255979e-03 -1.424349e-03 9.921268e-01 -8.153943e-02 9.920579e-01 -8.154279e-02 4.243707e-03 -1.458727e-03
1.640000e+10 4.264895e-03 -1.443071e-03 9.920745e-01 -8.202697e-02 9.920056e-01 -8.202904e-02 4.252936e-03 -1.476379e-03
