#   Hz   S  RI   R   50
!
0.000000e+00 3.190888e-03 0.000000e+00 9.969170e-01 0.000000e+00 9.969164e-01 0.000000e+00 3.205154e-03 0.000000e+00
1.000000e+08 3.190971e-03 -1.434931e-06 9.969167e-01 -5.511692e-04 9.969161e-01 -5.511765e-04 3.205237e-03 -1.677722e-06
2.000000e+08 3.191218e-03 -2.872179e-06 9.969160e-01 -1.102335e-03 9.969153e-01 -1.102349e-03 3.205485e-03 -3.357702e-06
3.000000e+08 3.191629e-03 -4.314057e-06 9.969147e-01 -1.653494e-03 9.969140e-01 -1.653515e-03 3.205899e-03 -5.042197e-06
4.000000e+08 3.192206e-03 -5.762881e-06 9.969128e-01 -2.204642e-03 9.969122e-01 -2.204671e-03 3.206479e-03 -6.733461e-06
5.000000e+08 3.192947e-03 -7.220962e-06 9.969105e-01 -2.755776e-03 9.969098e-01 -2.755812e-03 3.207224e-03 -8.433750e-06
6.000000e+08 3.193852e-03 -8.690612e-06 9.969076e-01 -3.306893e-03 9.969070e-01 -3.306936e-03 3.208134e-03 -1.014531e-05
7.000000e+08 3.194921e-03 -1.017414e-05 9.969042e-01 -3.857989e-03 9.969036e-01 -3.858039e-03 3.209210e-03 -1.187041e-05
8.000000e+08 3.196154e-03 -1.167384e-05 9.969003e-01 -4.409060e-03 9.968996e-01 -4.409118e-03 3.210450e-03 -1.361127e-05
9.000000e+08 3.197551e-03 -1.319203e-05 9.968958e-01 -4.960103e-03 9.968952e-01 -4.960168e-03 3.211855e-03 -1.537015e-05
1.000000e+09 3.199111e-03 -1.473099e-05 9.968908e-01 -5.511115e-03 9.968902e-01 -5.511187e-03 3.213425e-03 -1.714928e-05
1.100000e+09 3.200834e-03 -1.629302e-05 9.968854e-01 -6.062092e-03 9.968847e-01 -6.062172e-03 3.215158e-03 -1.895090e-05
1.200000e+09 3.202719e-03 -1.788041e-05 9.968794e-01 -6.613031e-03 9.968787e-01 -6.613118e-03 3.217055e-03 -2.077723e-05
1.300000e+09 3.204767e-03 -1.949543e-05 9.968728e-01 -7.163928e-03 9.968722e-01 -7.164022e-03 3.219116e-03 -2.263050e-05
1.400000e+09 3.206977e-03 -2.114035e-05 9.968658e-01 -7.714780e-03 9.968651e-01 -7.714881e-03 3.221339e-03 -2.451293e-05
1.500000e+09 3.209349e-03 -2.281744e-05 9.968582e-01 -8.265583e-03 9.968576e-01 -8.265691e-03 3.223725e-03 -2.642672e-05
1.600000e+09 3.211881e-03 -2.452897e-05 9.968501e-01 -8.816334e-03 9.968495e-01 -8.816449e-03 3.226273e-03 -2.837407e-05
1.700000e+09 3.214574e-03 -2.627717e-05 9.968415e-01 -9.367030e-03 9.968409e-01 -9.367152e-03 3.228983e-03 -3.035719e-05
1.800000e+09 3.217426e-03 -2.806430e-05 9.968324e-01 -9.917667e-03 9.968318e-01 -9.917796e-03 3.231853e-03 -3.237825e-05
1.900000e+09 3.220438e-03 -2.989258e-05 9.968228e-01 -1.046824e-02 9.968221e-01 -1.046838e-02 3.234884e-03 -3.443943e-05
2.000000e+09 3.223608e-03 -3.176423e-05 9.968126e-01 -1.101875e-02 9.968120e-01 -1.101889e-02 3.238075e-03 -3.654291e-05
2.100000e+09 3.226937e-03 -3.368148e-05 9.968020e-01 -1.156919e-02 9.968013e-01 -1.156934e-02 3.241425e-03 -3.869083e-05
2.200000e+09 3.230423e-03 -3.564651e-05 9.967908e-01 -1.211956e-02 9.967902e-01 -1.211972e-02 3.244933e-03 -4.088535e-05
2.300000e+09 3.234065e-03 -3.766152e-05 9.967791e-01 -1.266985e-02 9.967785e-01 -1.267002e-02 3.248599e-03 -4.312860e-05
2.400000e+09 3.237863e-03 -3.972869e-05 9.967669e-01 -1.322007e-02 9.967663e-01 -1.322024e-02 3.252423e-03 -4.542271e-05
2.500000e+09 3.241816e-03 -4.185019e-05 9.967542e-01 -1.377020e-02 9.967536e-01 -1.377038e-02 3.256402e-03 -4.776979e-05
2.600000e+09 3.245924e-03 -4.402816e-05 9.967410e-01 -1.432025e-02 9.967404e-01 -1.432043e-02 3.260538e-03 -5.017194e-05
2.700000e+09 3.250185e-03 -4.626475e-05 9.967273e-01 -1.487020e-02 9.967267e-01 -1.487040e-02 3.264828e-03 -5.263125e-05
2.800000e+09 3.254598e-03 -4.856208e-05 9.967131e-01 -1.542007e-02 9.967124e-01 -1.542027e-02 3.269272e-03 -5.514980e-05
2.900000e+09 3.259163e-03 -5.092226e-05 9.966984e-01 -1.596984e-02 9.966977e-01 -1.597005e-02 3.273869e-03 -5.772964e-05
3.000000e+09 3.263879e-03 -5.334740e-05 9.966832e-01 -1.651952e-02 9.966825e-01 -1.651973e-02 3.278618e-03 -6.037283e-05
3.100000e+09 3.268745e-03 -5.583956e-05 9.966674e-01 -1.706909e-02 9.966668e-01 -1.706931e-02 3.283519e-03 -6.308139e-05
3.200000e+09 3.273759e-03 -5.840083e-05 9.966512e-01 -1.761856e-02 9.966505e-01 -1.761879e-02 3.288569e-03 -6.585735e-05
3.300000e+09 3.278922e-03 -6.103325e-05 9.966345e-01 -1.816792e-02 9.966338e-01 -1.816816e-02 3.293769e-03 -6.870271e-05
3.400000e+09 3.284231e-03 -6.373884e-05 9.966173e-01 -1.871718e-02 9.966166e-01 -1.871742e-02 3.299118e-03 -7.161945e-05
3.500000e+09 3.289685e-03 -6.651964e-05 9.965996e-01 -1.926632e-02 9.965989e-01 -1.926657e-02 3.304613e-03 -7.460953e-05
3.600000e+09 3.295284e-03 -6.937763e-05 9.965814e-01 -1.981534e-02 9.965807e-01 -1.981560e-02 3.310255e-03 -7.767493e-05
3.700000e+09 3.301027e-03 -7.231480e-05 9.965627e-01 -2.036424e-02 9.965620e-01 -2.036451e-02 3.316042e-03 -8.081756e-05
3.800000e+09 3.306911e-03 -7.533311e-05 9.965435e-01 -2.091303e-02 9.965428e-01 -2.091330e-02 3.321972e-03 -8.403935e-05
3.900000e+09 3.312937e-03 -7.843450e-05 9.965238e-01 -2.146168e-02 9.965231e-01 -2.146196e-02 3.328046e-03 -8.734219e-05
4.000000e+09 3.319102e-03 -8.162089e-05 9.965037e-01 -2.201021e-02 9.965030e-01 -2.201050e-02 3.334261e-03 -9.072798e-05
4.100000e+09 3.325406e-03 -8.489420e-05 9.964830e-01 -2.255861e-02 9.964823e-01 -2.255891e-02 3.340616e-03 -9.419856e-05
4.200000e+09 3.331848e-03 -8.825630e-05 9.964619e-01 -2.310688e-02 9.964612e-01 -2.310718e-02 3.347111e-03 -9.775579e-05
4.300000e+09 3.338425e-03 -9.170906e-05 9.964403e-01 -2.365501e-02 9.964396e-01 -2.365532e-02 3.353743e-03 -1.014015e-04
4.400000e+09 3.345137e-03 -9.525432e-05 9.964183e-01 -2.420300e-02 9.964176e-01 -2.420331e-02 3.360513e-03 -1.051374e-04
4.500000e+09 3.351983e-03 -9.889391e-05 9.963957e-01 -2.475085e-02 9.963950e-01 -2.475117e-02 3.367417e-03 -1.089654e-04
4.600000e+09 3.358960e-03 -1.026296e-04 9.963727e-01 -2.529856e-02 9.963720e-01 -2.529888e-02 3.374456e-03 -1.128873e-04
4.700000e+09 3.366068e-03 -1.064632e-04 9.963492e-01 -2.584612e-02 9.963485e-01 -2.584645e-02 3.381627e-03 -1.169047e-04
4.800000e+09 3.373305e-03 -1.103965e-04 9.963253e-01 -2.639353e-02 9.963245e-01 -2.639387e-02 3.388929e-03 -1.210193e-04
4.900000e+09 3.380670e-03 -1.144311e-04 9.963008e-01 -2.694079e-02 9.963001e-01 -2.694113e-02 3.396362e-03 -1.252329e-04
5.000000e+09 3.388161e-03 -1.185689e-04 9.962760e-01 -2.748789e-02 9.962752e-01 -2.748824e-02 3.403923e-03 -1.295472e-04
5.100000e+09 3.395777e-03 -1.228114e-04 9.962506e-01 -2.803484e-02 9.962499e-01 -2.803520e-02 3.411610e-03 -1.339637e-04
5.200000e+09 3.403516e-03 -1.271604e-04 9.962248e-01 -2.858163e-02 9.962240e-01 -2.858200e-02 3.419424e-03 -1.384842e-04
5.300000e+09 3.411376e-03 -1.316174e-04 9.961985e-01 -2.912826e-02 9.961978e-01 -2.912863e-02 3.427361e-03 -1.431102e-04
5.400000e+09 3.419357e-03 -1.361842e-04 9.961718e-01 -2.967472e-02 9.961711e-01 -2.967510e-02 3.435421e-03 -1.478434e-04
5.500000e+09 3.427456e-03 -1.408622e-04 9.961446e-01 -3.022102e-02 9.961439e-01 -3.022141e-02 3.443602e-03 -1.526852e-04
5.600000e+09 3.435672e-03 -1.456531e-04 9.961170e-01 -3.076715e-02 9.961163e-01 -3.076754e-02 3.451903e-03 -1.576372e-04
5.700000e+09 3.444004e-03 -1.505584e-04 9.960890e-01 -3.131311e-02 9.960882e-01 -3.131351e-02 3.460321e-03 -1.627009e-04
5.800000e+09 3.452449e-03 -1.555796e-04 9.960604e-01 -3.185890e-02 9.960597e-01 -3.185930e-02 3.468856e-03 -1.678778e-04
5.900000e+09 3.461006e-03 -1.607181e-04 9.960315e-01 -3.240451e-02 9.960307e-01 -3.240492e-02 3.477505e-03 -1.731694e-04
6.000000e+09 3.469674e-03 -1.659755e-04 9.960021e-01 -3.294994e-02 9.960013e-01 -3.295036e-02 3.486267e-03 -1.785771e-04
6.100000e+09 3.478450e-03 -1.713532e-04 9.959723e-01 -3.349520e-02 9.959715e-01 -3.349563e-02 3.495141e-03 -1.841023e-04
6.200000e+09 3.487333e-03 -1.768526e-04 9.959420e-01 -3.404028e-02 9.959412e-01 -3.404071e-02 3.504125e-03 -1.897464e-04
6.300000e+09 3.496322e-03 -1.824750e-04 9.959113e-01 -3.458517e-02 9.959105e-01 -3.458561e-02 3.513216e-03 -1.955107e-04
6.400000e+09 3.505413e-03 -1.882218e-04 9.958802e-01 -3.512988e-02 9.958794e-01 -3.513032e-02 3.522414e-03 -2.013966e-04
6.500000e+09 3.514607e-03 -1.940944e-04 9.958486e-01 -3.567440e-02 9.958478e-01 -3.567485e-02 3.531717e-03 -2.074054e-04
6.600000e+09 3.523900e-03 -2.000940e-04 9.958166e-01 -3.621874e-02 9.958158e-01 -3.621919e-02 3.541123e-03 -2.135384e-04
6.700000e+09 3.533291e-03 -2.062220e-04 9.957843e-01 -3.676288e-02 9.957834e-01 -3.676334e-02 3.550630e-03 -2.197968e-04
6.800000e+09 3.542779e-03 -2.124794e-04 9.957514e-01 -3.730683e-02 9.957506e-01 -3.730730e-02 3.560236e-03 -2.261818e-04
6.900000e+09 3.552360e-03 -2.188677e-04 9.957182e-01 -3.785059e-02 9.957174e-01 -3.785107e-02 3.569940e-03 -2.326946e-04
7.000000e+09 3.562035e-03 -2.253879e-04 9.956846e-01 -3.839416e-02 9.956837e-01 -3.839464e-02 3.579739e-03 -2.393365e-04
7.100000e+09 3.571800e-03 -2.320412e-04 9.956505e-01 -3.893752e-02 9.956497e-01 -3.893801e-02 3.589633e-03 -2.461085e-04
7.200000e+09 3.581654e-03 -2.388287e-04 9.956161e-01 -3.948069e-02 9.956152e-01 -3.948119e-02 3.599619e-03 -2.530118e-04
7.300000e+09 3.591595e-03 -2.457515e-04 9.955812e-01 -4.002366e-02 9.955803e-01 -4.002417e-02 3.609695e-03 -2.600474e-04
7.400000e+09 3.601621e-03 -2.528108e-04 9.955459e-01 -4.056643e-02 9.955451e-01 -4.056694e-02 3.619860e-03 -2.672164e-04
7.500000e+09 3.611730e-03 -2.600074e-04 9.955103e-01 -4.110900e-02 9.955094e-01 -4.110951e-02 3.630112e-03 -2.745199e-04
7.600000e+09 3.621920e-03 -2.673425e-04 9.954742e-01 -4.165136e-02 9.954733e-01 -4.165188e-02 3.640448e-03 -2.819588e-04
7.700000e+09 3.632189e-03 -2.748171e-04 9.954378e-01 -4.219352e-02 9.954369e-01 -4.219405e-02 3.650868e-03 -2.895341e-04
7.800000e+09 3.642536e-03 -2.824320e-04 9.954009e-01 -4.273547e-02 9.954000e-01 -4.273601e-02 3.661368e-03 -2.972468e-04
7.900000e+09 3.652958e-03 -2.901881e-04 9.953637e-01 -4.327722e-02 9.953628e-01 -4.327776e-02 3.671948e-03 -3.050977e-04
8.000000e+09 3.663454e-03 -2.980865e-04 9.953261e-01 -4.381875e-02 9.953252e-01 -4.381930e-02 3.682604e-03 -3.130878e-04
8.100000e+09 3.674021e-03 -3.061279e-04 9.952881e-01 -4.436008e-02 9.952872e-01 -4.436063e-02 3.693337e-03 -3.212179e-04
8.200000e+09 3.684657e-03 -3.143132e-04 9.952497e-01 -4.490119e-02 9.952488e-01 -4.490175e-02 3.704142e-03 -3.294889e-04
8.300000e+09 3.695360e-03 -3.226432e-04 9.952110e-01 -4.544210e-02 9.952100e-01 -4.544266e-02 3.715019e-03 -3.379015e-04
8.400000e+09 3.706130e-03 -3.311186e-04 9.951719e-01 -4.598279e-02 9.951709e-01 -4.598336e-02 3.725966e-03 -3.464565e-04
8.500000e+09 3.716962e-03 -3.397401e-04 9.951324e-01 -4.652327e-02 9.951314e-01 -4.652384e-02 3.736980e-03 -3.551547e-04
8.600000e+09 3.727856e-03 -3.485086e-04 9.950925e-01 -4.706353e-02 9.950916e-01 -4.706411e-02 3.748060e-03 -3.639967e-04
8.700000e+09 3.738809e-03 -3.574246e-04 9.950523e-01 -4.760358e-02 9.950513e-01 -4.760417e-02 3.759203e-03 -3.729833e-04
8.800000e+09 3.749820e-03 -3.664889e-04 9.950117e-01 -4.814341e-02 9.950108e-01 -4.814401e-02 3.770408e-03 -3.821151e-04
8.900000e+09 3.760886e-03 -3.757019e-04 9.949708e-01 -4.868303e-02 9.949698e-01 -4.868363e-02 3.781673e-03 -3.913927e-04
9.000000e+09 3.772005e-03 -3.850644e-04 9.949295e-01 -4.922243e-02 9.949285e-01 -4.922303e-02 3.792996e-03 -4.008167e-04
9.100000e+09 3.783175e-03 -3.945769e-04 9.948879e-01 -4.976161e-02 9.948869e-01 -4.976222e-02 3.804374e-03 -4.103877e-04
9.200000e+09 3.794395e-03 -4.042398e-04 9.948459e-01 -5.030057e-02 9.948449e-01 -5.030119e-02 3.815806e-03 -4.201063e-04
9.300000e+09 3.805662e-03 -4.140538e-04 9.948036e-01 -5.083932e-02 9.948025e-01 -5.083994e-02 3.827290e-03 -4.299728e-04
9.400000e+09 3.816973e-03 -4.240192e-04 9.947609e-01 -5.137784e-02 9.947599e-01 -5.137847e-02 3.838823e-03 -4.399879e-04
9.500000e+09 3.828328e-03 -4.341365e-04 9.947179e-01 -5.191615e-02 9.947168e-01 -5.191678e-02 3.850405e-03 -4.501519e-04
9.600000e+09 3.839724e-03 -4.444061e-04 9.946745e-01 -5.245423e-02 9.946735e-01 -5.245487e-02 3.862032e-03 -4.604653e-04
9.700000e+09 3.851159e-03 -4.548284e-04 9.946309e-01 -5.299209e-02 9.946298e-01 -5.299274e-02 3.873703e-03 -4.709285e-04
9.800000e+09 3.862630e-03 -4.654036e-04 9.945869e-01 -5.352974e-02 9.945858e-01 -5.353039e-02 3.885416e-03 -4.815417e-04
9.900000e+09 3.874137e-03 -4.761323e-04 9.945425e-01 -5.406716e-02 9.945414e-01 -5.406782e-02 3.897168e-03 -4.923054e-04
1.000000e+10 3.885676e-03 -4.870145e-04 9.944979e-01 -5.460436e-02 9.944968e-01 -5.460502e-02 3.908959e-03 -5.032199e-04
1.010000e+10 3.897246e-03 -4.980505e-04 9.944529e-01 -5.514134e-02 9.944518e-01 -5.514201e-02 3.920785e-03 -5.142853e-04
1.020000e+10 3.908844e-03 -5.092407e-04 9.944076e-01 -5.567810e-02 9.944065e-01 -5.567877e-02 3.932645e-03 -5.255021e-04
1.030000e+10 3.920469e-03 -5.205851e-04 9.943620e-01 -5.621464e-02 9.943608e-01 -5.621532e-02 3.944537e-03 -5.368703e-04
1.040000e+10 3.932118e-03 -5.320840e-04 9.943160e-01 -5.675096e-02 9.943149e-01 -5.675164e-02 3.956458e-03 -5.483902e-04
1.050000e+10 3.943790e-03 -5.437374e-04 9.942698e-01 -5.728705e-02 9.942686e-01 -5.728774e-02 3.968408e-03 -5.600618e-04
1.060000e+10 3.955483e-03 -5.555456e-04 9.942232e-01 -5.782293e-02 9.942221e-01 -5.782362e-02 3.980383e-03 -5.718855e-04
1.070000e+10 3.967194e-03 -5.675084e-04 9.941764e-01 -5.835858e-02 9.941752e-01 -5.835927e-02 3.992382e-03 -5.838611e-04
1.080000e+10 3.978921e-03 -5.796261e-04 9.941292e-01 -5.889401e-02 9.941281e-01 -5.889471e-02 4.004402e-03 -5.959889e-04
1.090000e+10 3.990662e-03 -5.918985e-04 9.940818e-01 -5.942922e-02 9.940806e-01 -5.942993e-02 4.016443e-03 -6.082689e-04
1.100000e+10 4.002416e-03 -6.043258e-04 9.940341e-01 -5.996421e-02 9.940329e-01 -5.996493e-02 4.028501e-03 -6.207010e-04
1.110000e+10 4.014180e-03 -6.169078e-04 9.939860e-01 -6.049899e-02 9.939848e-01 -6.049970e-02 4.040576e-03 -6.332853e-04
1.120000e+10 4.025952e-03 -6.296444e-04 9.939377e-01 -6.103354e-02 9.939365e-01 -6.103426e-02 4.052664e-03 -6.460217e-04
1.130000e+10 4.037730e-03 -6.425357e-04 9.938891e-01 -6.156787e-02 9.938879e-01 -6.156860e-02 4.064764e-03 -6.589101e-04
1.140000e+10 4.049513e-03 -6.555814e-04 9.938402e-01 -6.210199e-02 9.938389e-01 -6.210272e-02 4.076874e-03 -6.719505e-04
1.150000e+10 4.061297e-03 -6.687813e-04 9.937910e-01 -6.263588e-02 9.937898e-01 -6.263662e-02 4.088993e-03 -6.851427e-04
1.160000e+10 4.073082e-03 -6.821354e-04 9.937416e-01 -6.316956e-02 9.937403e-01 -6.317030e-02 4.101117e-03 -6.984866e-04
1.170000e+10 4.084865e-03 -6.956434e-04 9.936918e-01 -6.370302e-02 9.936905e-01 -6.370376e-02 4.113246e-03 -7.119820e-04
1.180000e+10 4.096645e-03 -7.093050e-04 9.936418e-01 -6.423627e-02 9.936405e-01 -6.423701e-02 4.125376e-03 -7.256286e-04
1.190000e+10 4.108418e-03 -7.231200e-04 9.935915e-01 -6.476929e-02 9.935902e-01 -6.477005e-02 4.137507e-03 -7.394264e-04
1.200000e+10 4.120184e-03 -7.370881e-04 9.935410e-01 -6.530211e-02 9.935397e-01 -6.530287e-02 4.149637e-03 -7.533749e-04
1.210000e+10 4.131940e-03 -7.512089e-04 9.934902e-01 -6.583471e-02 9.934889e-01 -6.583547e-02 4.161763e-03 -7.674739e-04
1.220000e+10 4.143685e-03 -7.654821e-04 9.934391e-01 -6.636709e-02 9.934378e-01 -6.636786e-02 4.173883e-03 -7.817232e-04
1.230000e+10 4.155416e-03 -7.799074e-04 9.933878e-01 -6.689927e-02 9.933865e-01 -6.690004e-02 4.185997e-03 -7.961223e-04
1.240000e+10 4.167132e-03 -7.944843e-04 9.933362e-01 -6.743123e-02 9.933349e-01 -6.743201e-02 4.198101e-03 -8.106709e-04
1.250000e+10 4.178830e-03 -8.092124e-04 9.932844e-01 -6.796298e-02 9.932830e-01 -6.796376e-02 4.210194e-03 -8.253686e-04
1.260000e+10 4.190509e-03 -8.240912e-04 9.932323e-01 -6.849452e-02 9.932309e-01 -6.849530e-02 4.222274e-03 -8.402150e-04
1.270000e+10 4.202167e-03 -8.391203e-04 9.931799e-01 -6.902585e-02 9.931785e-01 -6.902664e-02 4.234340e-03 -8.552097e-04
1.280000e+10 4.213802e-03 -8.542991e-04 9.931274e-01 -6.955698e-02 9.931259e-01 -6.955777e-02 4.246389e-03 -8.703522e-04
1.290000e+10 4.225412e-03 -8.696272e-04 9.930745e-01 -7.008789e-02 9.930731e-01 -7.008869e-02 4.258419e-03 -8.856420e-04
1.300000e+10 4.236995e-03 -8.851039e-04 9.930214e-01 -7.061860e-02 9.930200e-01 -7.061940e-02 4.270429e-03 -9.010786e-04
1.310000e+10 4.248550e-03 -9.007287e-04 9.929681e-01 -7.114911e-02 9.929667e-01 -7.114991e-02 4.282418e-03 -9.166615e-04
1.320000e+10 4.260074e-03 -9.165009e-04 9.929146e-01 -7.167941e-02 9.929131e-01 -7.168022e-02 4.294382e-03 -9.323901e-04
1.330000e+10 4.271567e-03 -9.324201e-04 9.928608e-01 -7.220951e-02 9.928593e-01 -7.221032e-02 4.306321e-03 -9.482638e-04
1.340000e+10 4.283025e-03 -9.484854e-04 9.928068e-01 -7.273941e-02 9.928053e-01 -7.274023e-02 4.318233e-03 -9.642820e-04
1.350000e+10 4.294447e-03 -9.646962e-04 9.927525e-01 -7.326911e-02 9.927510e-01 -7.326993e-02 4.330116e-03 -9.804441e-04
1.360000e+10 4.305832e-03 -9.810518e-04 9.926980e-01 -7.379861e-02 9.926965e-01 -7.379943e-02 4.341967e-03 -9.967495e-04
1.370000e+10 4.317177e-03 -9.975515e-04 9.926433e-01 -7.432791e-02 9.926418e-01 -7.432874e-02 4.353787e-03 -1.013197e-03
1.380000e+10 4.328482e-03 -1.014195e-03 9.925884e-01 -7.485702e-02 9.925869e-01 -7.485785e-02 4.365572e-03 -1.029787e-03
1.390000e+10 4.339744e-03 -1.030980e-03 9.925333e-01 -7.538593e-02 9.925317e-01 -7.538677e-02 4.377321e-03 -1.046518e-03
1.400000e+10 4.350961e-03 -1.047908e-03 9.924779e-01 -7.591465e-02 9.924763e-01 -7.591549e-02 4.389033e-03 -1.063389e-03
1.410000e+10 4.362132e-03 -1.064976e-03 9.924223e-01 -7.644318e-02 9.924207e-01 -7.644402e-02 4.400705e-03 -1.080401e-03
1.420000e+10 4.373255e-03 -1.082184e-03 9.923665e-01 -7.697152e-02 9.923649e-01 -7.697236e-02 4.412337e-03 -1.097550e-03
1.430000e+10 4.384329e-03 -1.099532e-03 9.923105e-01 -7.749966e-02 9.923089e-01 -7.750051e-02 4.423926e-03 -1.114838e-03
1.440000e+10 4.395351e-03 -1.117018e-03 9.922543e-01 -7.802763e-02 9.922527e-01 -7.802848e-02 4.435471e-03 -1.132264e-03
1.450000e+10 4.406321e-03 -1.134642e-03 9.921978e-01 -7.855540e-02 9.921962e-01 -7.855625e-02 4.446970e-03 -1.149825e-03
1.460000e+10 4.417237e-03 -1.152402e-03 9.921412e-01 -7.908299e-02 9.921396e-01 -7.908385e-02 4.458422e-03 -1.167522e-03
1.470000e+10 4.428097e-03 -1.170298e-03 9.920844e-01 -7.961040e-02 9.920827e-01 -7.961126e-02 4.469825e-03 -1.185354e-03
1.480000e+10 4.438899e-03 -1.188329e-03 9.920273e-01 -8.013763e-02 9.920256e-01 -8.013849e-02 4.481178e-03 -1.203320e-03
1.490000e+10 4.449642e-03 -1.206493e-03 9.919701e-01 -8.066467e-02 9.919684e-01 -8.066554e-02 4.492479e-03 -1.221418e-03
1.500000e+10 4.460324e-03 -1.224790e-03 9.919126e-01 -8.119154e-02 9.919109e-01 -8.119241e-02 4.503726e-03 -1.239648e-03
1.510000e+10 4.470945e-03 -1.243219e-03 9.918550e-01 -8.171824e-02 9.918532e-01 -8.171911e-02 4.514919e-03 -1.258010e-03
1.520000e+10 4.481502e-03 -1.261778e-03 9.917971e-01 -8.224476e-02 9.917954e-01 -8.224563e-02 4.526055e-03 -1.276501e-03
1.530000e+10 4.491993e-03 -1.280467e-03 9.917391e-01 -8.277111e-02 9.917373e-01 -8.277198e-02 4.537134e-03 -1.295121e-03
1.540000e+10 4.502419e-03 -1.299285e-03 9.916809e-01 -8.329728e-02 9.916791e-01 -8.329816e-02 4.548153e-03 -1.313869e-03
1.550000e+10 4.512776e-03 -1.318230e-03 9.916224e-01 -8.382329e-02 9.916206e-01 -8.382417e-02 4.559111e-03 -1.332745e-03
1.560000e+10 4.523064e-03 -1.337302e-03 9.915638e-01 -8.434913e-02 9.915620e-01 -8.435002e-02 4.570008e-03 -1.351746e-03
1.570000e+10 4.533281e-03 -1.356498e-03 9.915050e-01 -8.487481e-02 9.915032e-01 -8.487569e-02 4.580841e-03 -1.370872e-03
1.580000e+10 4.543426e-03 -1.375819e-03 9.914460e-01 -8.540032e-02 9.914442e-01 -8.540121e-02 4.591609e-03 -1.390121e-03
1.590000e+10 4.553498e-03 -1.395263e-03 9.913869e-01 -8.592567e-02 9.913850e-01 -8.592656e-02 4.602311e-03 -1.409494e-03
1.600000e+10 4.563494e-03 -1.414829e-03 9.913275e-01 -8.645086e-02 9.913256e-01 -8.645175e-02 4.612945e-03 -1.428988e-03
1.610000e+10 4.573415e-03 -1.434515e-03 9.912680e-01 -8.697589e-02 9.912661e-01 -8.697678e-02 4.623511e-03 -1.448602e-03
1.620000e+10 4.583258e-03 -1.454321e-03 9.912083e-01 -8.750076e-02 9.912064e-01 -8.750166e-02 4.634007e-03 -1.468336e-03
1.630000e+10 4.593023e-03 -1.474245e-03 9.911484e-01 -8.802548e-02 9.911464e-01 -8.802638e-02 4.644431e-03 -1.488188e-03
1.640000e+10 4.602707e-03 -1.494286e-03 9.910883e-01 -8.855005e-02 9.910863e-01 -8.855095e-02 4.654783e-03 -1.508157e-03
