#   Hz   S  RI   R   50
!
0.0 0.0030524365933066533 0.0 0.9970149121015728 0.0 0.9970439551411979 0.0 0.00302372749941213 0.0
100000000.0 0.003052497233228376 -5.447962223536248e-06 0.9970147115961426 -0.00047239076194913925 0.9970437462500124 -0.00047309756757093905 0.003023793501149838 -4.899144059977393e-06
200000000.0 0.003052679139529083 -1.0897682108232022e-05 0.9970141101039162 -0.0009447785731591374 0.9970431196052039 -0.0009461917890443058 0.0030239914906617232 -9.800261183260914e-06
300000000.0 0.003052982271822268 -1.6350916860076093e-05 0.9970131076970755 -0.001417160483790316 0.9970420752930034 -0.0014192793194475212 0.0030243214208498116 -1.4705323880946909e-05
400000000.0 0.0030534065628093 -2.1809422774961186e-05 0.9970117044958938 -0.0018895335458016026 0.9970406134570908 -0.0018923568160574172 0.003024783213235077 -1.9616303559939992e-05
500000000.0 0.0030539519183036177 -2.7274954783983294e-05 0.997009900668693 -0.002361894813848741 0.9970387342985352 -0.002365420939523629 0.003025376757984055 -2.4535169971434152e-05
600000000.0 0.003054618217258264 -3.274926599937921e-05 0.9970076964317748 -0.0028342413461815742 0.9970364380757114 -0.0028384683549903577 0.0030261019139477554 -2.9463890660032257e-05
700000000.0 0.003055405311804697 -3.823410726112083e-05 0.9970050920493481 -0.0033065702055394878 0.9970337251041972 -0.0033114957332160805 0.003026958508708067 -3.440443041390838e-05
800000000.0 0.0030563130272999563 -4.373122668433957e-05 0.9970020878334213 -0.0037788784600451845 0.9970305957566395 -0.003784499751690496 0.003027946338637323 -3.9358750716009144e-05
900000000.0 0.0030573411623814255 -4.924236920781599e-05 0.996998684143693 -0.004251163184095936 0.997027050462606 -0.0042574770957482435 0.003029065168968811 -4.432880919655664e-05
1000000000.0 0.0030584894890294963 -5.47692761438236e-05 0.9969948813874137 -0.004723421459252231 0.9970230897084059 -0.004730424459679165 0.0030303147338751344 -4.931655908737174e-05
1100000000.0 0.003059757752641674 -6.0313684729036515e-05 0.9969906800192349 -0.005195650375123273 0.9970187140368924 -0.005203338547833986 0.003031694736560062 -5.4323948677851955e-05
1200000000.0 0.0030611456721100065 -6.587732767731111e-05 0.9969860805410379 -0.005667847030249021 0.997013924047239 -0.0056762160757255304 0.0030332048493597026 -5.9352920772955003e-05
1300000000.0 0.003062652939911916 -7.146193273403164e-05 0.9969810835017501 -0.006140008532978497 0.9970087203946971 -0.006149053771124447 0.003034844713853658 -6.440541215361875e-05
1400000000.0 0.0030642792222053167 -7.706922223247295e-05 0.9969756894971349 -0.0066121320023434125 0.9970031037903246 -0.006621848375149236 0.003036613940987174 -6.948335303967688e-05
1500000000.0 0.003066024158935212 -8.270091265189052e-05 0.9969698991695748 -0.007084214568928114 0.996997075000697 -0.007094596643350015 0.0030385121112038232 -7.458866655511286e-05
1600000000.0 0.003067887363945271 -8.83587141784872e-05 0.9969637132078282 -0.0075562533757334285 0.9969906348475953 -0.00756729534678539 0.0030405387745877704 -7.972326819687058e-05
1700000000.0 0.0030698684251000787 -9.404433026810691e-05 0.9969571323467749 -0.008028245579035998 0.9969837842076671 -0.008039941273092066 0.003042693451017084 -8.488906530626398e-05
1800000000.0 0.003071966904414675 -9.975945721174746e-05 0.9969501573671424 -0.008500188349241345 0.9969765240120724 -0.008512531227546598 0.003044975630326547 -9.008795654397777e-05
1900000000.0 0.0030741823381910034 -0.00010550578370401008 0.9969427890952142 -0.008972078871731718 0.9969688552461028 -0.008985062034118963 0.003047384772481412 -9.532183136855883e-05
2000000000.0 0.003076514237164231 -0.00011128499041398348 0.9969350284025246 -0.009443914347706125 0.9969607789487799 -0.009457530536517128 0.003049920307757956 -0.00010059256951903092
2100000000.0 0.003078962086655431 -0.00011709874955966334 0.9969268762055343 -0.009915691995015226 0.9969522962124316 -0.009929933599222698 0.003052581636939545 -0.0001059020405009826
2200000000.0 0.0030815253467323723 -0.00012294872448516807 0.9969183334652887 -0.010387409048987538 0.9969434081822506 -0.010402268108516223 0.0030553681315181784 -0.00011125210307685444
2300000000.0 0.003084203452378846 -0.0001288365692414767 0.9969094011870648 -0.0108590627632495 0.9969341160558262 -0.010874530973493206 0.0030582791339052577 -0.00011664460476159717
2400000000.0 0.0030869958136708017 -0.00013476392817081227 0.9969000804199973 -0.011330650410536523 0.99692442108266 -0.01134671912706838 0.003061313957655196 -0.0001220813813214518
2500000000.0 0.0030899018159594917 -0.00014073243549429828 0.9968903722566882 -0.011802169283497147 0.9969143245636598 -0.011818829526969696 0.003064471887696247 -0.00012756425627879803
2600000000.0 0.0030929208200642638 -0.0001467437149039332 0.9968802778328073 -0.012273616695487266 0.9969038278506113 -0.0122908591567203 0.003067752180572503 -0.00013309504042074825
2700000000.0 0.0030960521624706643 -0.00015279937915797478 0.9968697983266697 -0.012744989981357046 0.9968929323456321 -0.012762805026608558 0.0030711540646903308 -0.00013867553131471268
2800000000.0 0.0030992951555362104 -0.00015890102968107826 0.996858934958801 -0.013216286498227404 0.9968816395006052 -0.013234664174646048 0.003074676740580835 -0.0001443075128274759
2900000000.0 0.0031026490877050514 -0.00016505025616798957 0.99684768899149 -0.013687503626257706 0.996869950816594 -0.013706433667511416 0.003078319381166999 -0.00014999275465056458
3000000000.0 0.00310611322372632 -0.00017124863619219093 0.9968360617283227 -0.014158638769403813 0.9968578678432374 -0.014178110601482536 0.003082081132039346 -0.0001557330118319551
3100000000.0 0.003109686804884423 -0.00017749773481852668 0.9968240545137029 -0.014629689356165517 0.9968453921781227 -0.014649692103354532 0.003085961111741578 -0.00016153002431292822
3200000000.0 0.0031133690492310107 -0.00018379910422125267 0.9968116687323582 -0.015100652840324176 0.9968325254661481 -0.015121175331342355 0.0030899584120666016 -0.0001673855164708717
3300000000.0 0.003117159151826832 -0.0001901542833061582 0.9967989058088348 -0.015571526701669084 0.9968192693988627 -0.015592557475970563 0.003094072098356609 -0.0001733011966692488
3400000000.0 0.003121056284990862 -0.00019656479733781747 0.9967857672069731 -0.016042308446713515 0.9968056257137843 -0.016063835760947706 0.0030983012098157606 -0.00017927875681293987
3500000000.0 0.003125059598553772 -0.00020303215757213708 0.9967722544293741 -0.016512995609399065 0.9967915961937075 -0.016535007444025054 0.0031026447598271932 -0.00018531987191135077
3600000000.0 0.0031291682201186346 -0.00020955786089386648 0.9967583690168509 -0.01698358575178852 0.9967771826659934 -0.017006069817839597 0.0031071017362817397 -0.00019142619964663805
3700000000.0 0.0031333812553296287 -0.0002161433894597031 0.9967441125478667 -0.017454076464747337 0.9967623870018356 -0.017477020210742367 0.003111671101911149 -0.0001975993799510331
3800000000.0 0.0031376977881441715 -0.00022279021034599426 0.9967294866379592 -0.01792446536861241 0.9967472111155208 -0.017947855987608324 0.0031163517946312413 -0.00020384103458875153
3900000000.0 0.0031421168811135753 -0.00022949977520309402 0.9967144929391565 -0.01839475011384948 0.9967316569636646 -0.018418574550632047 0.003121142727891579 -0.00021015276674706822
4000000000.0 0.0031466375756681758 -0.00023627351991487442 0.9966991331393745 -0.018864928381696837 0.9967157265444359 -0.01888917334010419 0.0031260427910323745 -0.00021653616063405288
4100000000.0 0.0031512588924106355 -0.00024311286426350711 0.9966834089618076 -0.019334997884796964 0.9966994218967677 -0.019359649835172056 0.003131050849648632 -0.0002229927810834028
4200000000.0 0.0031559798314105265 -0.00025001921160097137 0.9966673221643058 -0.019804956367815558 0.9966827450995492 -0.019830001554582186 0.0031361657459615636 -0.00022952417316759817
4300000000.0 0.0031607993725102333 -0.00025699394852590085 0.9966508745387382 -0.020274801608045682 0.9966656982708061 -0.02030022605740502 0.0031413862991970655 -0.00023613186181812638
4400000000.0 0.003165716475630731 -0.00026403844456747346 0.9966340679103506 -0.02074453141600081 0.9966482835668686 -0.020770320943740886 0.0031467113059694637 -0.00024281735145412618
4500000000.0 0.0031707300810877533 -0.0002711540518734277 0.9966169041371066 -0.02121414363599169 0.9966305031815214 -0.021240283855409256 0.0031521395406740632 -0.00024958212561864535
4600000000.0 0.003175839109909033 -0.0002783421049071329 0.9965993851090214 -0.021683636146691554 0.9966123593451469 -0.021710112476617156 0.0031576697558822055 -0.0002564276466236414
4700000000.0 0.0031810424641608805 -0.0002856039201483654 0.9965815127474872 -0.022153006861685212 0.9965938543238505 -0.02217980453460917 0.0031633006827472897 -0.00026335535520211333
4800000000.0 0.0031863390272734373 -0.00029294079580286794 0.996563289004582 -0.022622253730005537 0.9965749904185776 -0.022649357800300356 0.0031690310314123706 -0.00027036667016950135
4900000000.0 0.00319172766437845 -0.000300354011516272 0.9965447158623782 -0.02309137473665452 0.996555769964216 -0.023118770088886645 0.003174859491426893 -0.00027746298809303444
5000000000.0 0.0031972072226453103 -0.0003078448280966968 0.996525795332232 -0.023560367903110616 0.9965361953286903 -0.023588039260437385 0.0031807847321635753 -0.00028464568297077784
5100000000.0 0.003202776531625575 -0.00031541448724182124 0.9965065294540745 -0.024029231287818503 0.9965162689120446 -0.02405716322046782 0.003186805403249755 -0.00029191610591639645
5200000000.0 0.003208434403599497 -0.00032306421127558906 0.9964869202956831 -0.02449796298666964 0.9964959931455122 -0.024526139920491418 0.0031929201349939944 -0.00029927558485641465
5300000000.0 0.0032141796339271046 -0.0003307952028884763 0.9964669699519557 -0.024966561133460373 0.9964753704905791 -0.024994967358552198 0.003199127538823754 -0.0003067254242331756
5400000000.0 0.003220011001406501 -0.00033860864488756214 0.9964466805441663 -0.02543502390034133 0.9964544034380386 -0.025463643579736277 0.003205426207725327 -0.00031426690471915365
5500000000.0 0.0032259272686308333 -0.00034650569995121856 0.9964260542192237 -0.025903349498246013 0.9964330945070333 -0.025932166676662947 0.003211814716691345 -0.00032190128293712114
5600000000.0 0.003231927182352367 -0.0003544875103932392 0.9964050931489142 -0.026371536177309352 0.9964114462440921 -0.026400534789955767 0.003218291623166263 -0.00032962979119342936
5700000000.0 0.0032380094738507234 -0.00036255519793183225 0.9963837995291408 -0.02683958222726562 0.9963894612221585 -0.026868746108691437 0.003224855467503554 -0.0003374536372162353
5800000000.0 0.0032441728593022006 -0.0003707098634671291 0.9963621755791601 -0.027307485977832988 0.9963671420396107 -0.027336798870829827 0.003231504773422701 -0.0003453740039060451
5900000000.0 0.0032504160401544673 -0.00037895258686469296 0.996340223540802 -0.02777524579908258 0.9963444913192754 -0.027804691363620723 0.0032382380484689403 -0.0003533920490935454
6000000000.0 0.003256737703502986 -0.0003872844267485257 0.996317945677698 -0.028242860101790918 0.9963215117074361 -0.028272421923991237 0.003245053784479971 -0.00036150890530732435
6100000000.0 0.003263136522471512 -0.00039570642029882294 0.9962953442744926 -0.02871032733777561 0.996298205872834 -0.028739988938909892 0.003251950458053252 -0.00036972567955169974
6200000000.0 0.003269611156595346 -0.0004042195830578174 0.9962724216360523 -0.02917764600021642 0.996274576505664 -0.02920739084573284 0.003258926531017969 -0.000378043453091812
6300000000.0 0.003276160252205424 -0.00041282490874504374 0.9962491800866747 -0.029644814623959598 0.996250626316566 -0.02967462613252419 0.003265980450908957 -0.00038646328125057814
6400000000.0 0.0032827824428193013 -0.0004215233690760498 0.996225621969287 -0.03011183178580505 0.9962263580356117 -0.030141693338358897 0.003273110651444745 -0.00039498619321293003
6500000000.0 0.003289476349529812 -0.0004303159135922699 0.9962017496446449 -0.030578696104778157 0.9962017744112858 -0.030608591053602204 0.003280315553005479 -0.000403613191840893
6600000000.0 0.0032962405813978983 -0.0004392034694964913 0.9961775654905228 -0.0310454062423857 0.9961768782094664 -0.031075317920168193 0.0032875935631163315 -0.00041234525349753
6700000000.0 0.0033030737358491886 -0.00044818694149612026 0.9961530719009071 -0.03151196090285404 0.9961516722124011 -0.03154187263175484 0.0032949430769312967 -0.0004211833278806269
6800000000.0 0.003309974399069289 -0.0004572672116538273 0.996128271285181 -0.03197835883335256 0.9961261592176796 -0.032008253934062425 0.0033023624777187414 -0.00043012833786534627
6900000000.0 0.003316941146403524 -0.00046644513924615726 0.996103166067309 -0.03244459882419791 0.9961003420372041 -0.03247446062498433 0.0033098501373496807 -0.0004391811793568886
7000000000.0 0.003323972542757097 -0.0004757215606298207 0.9960777586850192 -0.032910679709046244 0.9960742234961617 -0.03294049155478053 0.0033174044167872804 -0.00044834272115229615
7100000000.0 0.0033310671429971476 -0.0004850972891136764 0.9960520515889835 -0.03337660036506373 0.996047806431991 -0.03340634562622834 0.0033250236665764506 -0.0004576138048127094
7200000000.0 0.0033382234923560942 -0.0004945731148413191 0.9960260472419936 -0.033842359713085954 0.9960210936933469 -0.0338720217947519 0.003332706227337143 -0.00046699524454313585
7300000000.0 0.0033454401268357913 -0.0005041498046783442 0.9959997481181417 -0.034307956717755675 0.9959940881390762 -0.03433751906852879 0.0033404504302555513 -0.0004764878270840727
7400000000.0 0.0033527155736130616 -0.0005138281021097122 0.9959731567019933 -0.034773390387648116 0.995966792637176 -0.034802836508578294 0.003348254597578611 -0.00048609231161052
7500000000.0 0.003360048351445409 -0.0005236087271424844 0.9959462754877625 -0.03523865977537884 0.9959392100637693 -0.03526797322882471 0.0033561170431083078 -0.0004958094296421561
7600000000.0 0.0033674369710803057 -0.0005334923762163775 0.9959191069784915 -0.03570376397769314 0.9959113433020695 -0.03573292839614355 0.0033640360726946822 -0.0005056398849616857
7700000000.0 0.0033748799356599826 -0.0005434797221241579 0.9958916536852195 -0.03616870213554239 0.9958831952413554 -0.03619770123038232 0.0033720099847316222 -0.0005155843535431438
7800000000.0 0.0033823757411318733 -0.0005535714139362324 0.9958639181261629 -0.03663347343414272 0.9958547687759424 -0.036662291004364 0.0033800370706515074 -0.0005256434834896013
7900000000.0 0.003389922876655358 -0.0005637680769357864 0.9958359028258905 -0.037098077103015256 0.9958260668041583 -0.03712669704386686 0.0033881156154183323 -0.000535817894980268
8000000000.0 0.0033975198250115386 -0.0005740703125584718 0.9958076103145009 -0.03756251241601405 0.9957970922273222 -0.037590918727585056 0.0033962438980223567 -0.0005461081802262732
8100000000.0 0.0034051650630112077 -0.0005844786983422722 0.9957790431267999 -0.038026778691336166 0.9957678479487267 -0.03805495548706858 0.003404420191974593 -0.0005565149034367016
8200000000.0 0.0034128570619034316 -0.0005949937878831035 0.9957502038014839 -0.03849087529151428 0.9957383368726247 -0.0385188068066413 0.0034126427657970625 -0.0005670386007931427
8300000000.0 0.0034205942877829896 -0.0006056161107981085 0.9957210948803207 -0.0389548016233952 0.9957085619032165 -0.03898247222330014 0.0034209098835167595 -0.0005776797804331814
8400000000.0 0.003428375201999284 -0.0006163461726973166 0.9956917189073342 -0.03941855713810347 0.9956785259436475 -0.03944595132659345 0.0034292198051547994 -0.000588438922444213
8500000000.0 0.00343619826156243 -0.0006271844551611311 0.9956620784279943 -0.03988214133098575 0.9956482318950062 -0.0399092437584787 0.0034375707872161313 -0.0005993164788648393
8600000000.0 0.0034440619195494396 -0.0006381314157258848 0.9956321759884055 -0.04034555374154221 0.9956176826553303 -0.04037234921316165 0.0034459610831769774 -0.0006103128736963902
8700000000.0 0.003451964625511509 -0.0006491874878770613 0.9956020141345021 -0.04080879395334237 0.995586881118618 -0.04083526743691315 0.0034543889439713135 -0.000621428502922052
8800000000.0 0.0034599048258762933 -0.0006603530810490705 0.9955715954112456 -0.04127186159392493 0.9955558301738435 -0.041297998227871696 0.0034628526184754447 -0.0006326637345370486
8900000000.0 0.0034678809643526824 -0.0006716285806324637 0.9955409223618273 -0.041734756334680774 0.9955245327039842 -0.041760541435819115 0.0034713503539899487 -0.000644018908585246
9000000000.0 0.00347589148233231 -0.0006830143479884971 0.995509997526871 -0.042197477890723575 0.9954929915850481 -0.04222289696194404 0.0034798803967193196 -0.0006554943372057288
9100000000.0 0.0034839348192913615 -0.0006945107204702778 0.9954788234436494 -0.04266002602074376 0.9954612096851162 -0.04268506475858232 0.003488440992250895 -0.0006670903046887528
9200000000.0 0.003492009413188461 -0.0007061180114506427 0.9954474026452924 -0.043122400526847425 0.9954291898633859 -0.04314704482894076 0.0034970303860290424 -0.0006788070675373372
9300000000.0 0.003500113700863157 -0.0007178365103592966 0.995415737660013 -0.04358460125438073 0.9953969349692279 -0.043608837226800964 0.0035056468238296814 -0.0006906448545408496
9400000000.0 0.0035082461184315562 -0.0007296664827239924 0.9953838310103306 -0.04404662809174131 0.995364447841246 -0.044070442056205805 0.003514288552228329 -0.0007026038668556356
9500000000.0 0.0035164051016796077 -0.0007416081702189172 0.995351685212302 -0.04450848097017107 0.9953317313063533 -0.044531859471128046 0.0035229538190681762 -0.0007146842780926364
9600000000.0 0.003524589086456857 -0.0007536617907226563 0.9953193027747607 -0.04497015986353963 0.9952987881788513 -0.04499308967512055 0.0035316408739234726 -0.0007268862344149973
9700000000.0 0.003532796509063071 -0.0007658275383796822 0.9952866861985585 -0.04543166478811011 0.995265621259519 -0.04545413292094988 0.0035403479685611255 -0.0007392098546434802
9800000000.0 0.0035410258066395947 -0.0007781055836697308 0.9952538379758175 -0.045892995802292925 0.9952322333347177 -0.0459149895102109 0.0035490733573966854 -0.0007516552303681452
9900000000.0 0.0035492754175516505 -0.0007904960734843152 0.9952207605891857 -0.046354153006382764 0.9951986271754985 -0.04637565979292739 0.0035578152979495693 -0.0007642224260716381
10000000000.0 0.003557543781771085 -0.0008029991312092975 0.9951874565111012 -0.046815136542288444 0.9951648055367256 -0.04683614416713258 0.003566572051292061 -0.000776911479255674
10100000000.0 0.003565829341257918 -0.0008156148568136759 0.9951539282030626 -0.047275946593240366 0.9951307711562093 -0.04729644307843517 0.0035753418824959926 -0.0007897224005795581
10200000000.0 0.0035741305403368248 -0.0008283433269444843 0.9951201781149096 -0.04773658338349292 0.9950965267538464 -0.04775655701957078 0.003584123061075441 -0.0008026551740026689
10300000000.0 0.0035824458260708884 -0.0008411845950291471 0.9950862086841071 -0.048197047178007706 0.9950620750307811 -0.0482164865299336 0.0035929138614243573 -0.0008157097569373962
10400000000.0 0.0035907736486348843 -0.0008541386913835744 0.9950520223350402 -0.048657338282129786 0.9950274186685657 -0.04867623219509433 0.003601712563251763 -0.0008288860804076785
10500000000.0 0.0035991124616817044 -0.0008672056233255826 0.9950176214783187 -0.049117457041244324 0.9949925603283437 -0.04913579464630633 0.0036105174520103416 -0.0008421840492156819
10600000000.0 0.0036074607227092274 -0.0008803853752955116 0.9949830085100847 -0.049577403840426436 0.9949575026500391 -0.049595174559989554 0.003619326819323085 -0.0008556035421143543
10700000000.0 0.003615816893421121 -0.000893677908982209 0.9949481858113336 -0.05003717910407868 0.994922248251561 -0.050054372657207746 0.0036281389634024216 -0.000869144411990082
10800000000.0 0.0036241794400873285 -0.0009070831634546439 0.9949131557472445 -0.05049678329555082 0.994886799728021 -0.05051338970312406 0.0036369521894693813 -0.0008828064860465274
