#   Hz   S  RI   R   50
!
0.0 0.0012748422738953062 0.0 0.998710637095754 0.0 0.9987062339186236 0.0 0.0012791003188252108 0.0
100000000.0 0.001274851387564951 -9.739844075922373e-06 0.9987106060055014 -0.00017793752909672718 0.9987062033908535 -0.00017786692336303091 0.0012791090714046377 -9.794332027583736e-06
200000000.0 0.001274878727354917 -1.9479902957271177e-05 0.9987105127369417 -0.0003558746721537287 0.9987061118095941 -0.0003557334787055542 0.0012791353279973233 -1.958886887708987e-05
300000000.0 0.0012749242896111387 -2.9220391418655898e-05 0.9987103572966686 -0.0005338110431964773 0.9987059591809988 -0.0005335992980672937 0.0012791790851644973 -2.938381534185693e-05
400000000.0 0.0012749880682422926 -3.896152417312401e-05 0.9987101396956702 -0.0007117462563807773 0.9987057455153183 -0.0007114640136084526 0.0012792403371773172 -3.917937615803788e-05
500000000.0 0.0012750700547230693 -4.870351584133995e-05 0.9987098599493266 -0.0008896799260579687 0.9987054708269048 -0.0008893272576698649 0.0012793190760150256 -4.897575597606245e-05
600000000.0 0.0012751702380946579 -5.844658092082511e-05 0.9987095180774072 -0.0010676116668399285 0.9987051351342034 -0.001067188662833167 0.0012794152913694202 -5.877315933204088e-05
700000000.0 0.0012752886049677216 -6.81909337552298e-05 0.998709114104064 -0.0012455410936641643 0.9987047384597507 -0.0012450478619809215 0.0012795289706442558 -6.857179061924751e-05
800000000.0 0.0012754251395232122 -7.793678850369331e-05 0.9987086480578306 -0.0014234678218587207 0.9987042808301709 -0.0014229044883565121 0.001279660098958773 -7.83718540596572e-05
900000000.0 0.0012755798235166542 -8.768435911013313e-05 0.9987081199716111 -0.0016013914672070608 0.9987037622761676 -0.0016007581756242737 0.001279808659149579 -8.817355367544899e-05
1000000000.0 0.001275752636280522 -9.743385927261027e-05 0.9987075298826774 -0.0017793116460127715 0.9987031828325185 -0.0017786085579291598 0.001279974631773732 -9.79770932606463e-05
1100000000.0 0.0012759435547290048 -0.000107185502412848 0.9987068778326588 -0.0019572279751641527 0.9987025425380706 -0.0019564552699564974 0.0012801579951137408 -0.00010778267635262547
1200000000.0 0.0012761525533608652 -0.00011693950164571452 0.9987061638675332 -0.0021351400721986596 0.9987018414357278 -0.0021342979469915423 0.0012803587251781388 -0.000117590506204012
1300000000.0 0.0012763796042650696 -0.00012669606974880085 0.9987053880376184 -0.0023130475553672786 0.9987010795724456 -0.0023121362249789055 0.0012805767957092516 -0.00012740078575417996
1400000000.0 0.0012766246771253877 -0.00013645541913211956 0.9987045503975591 -0.002490950043698614 0.998700256999218 -0.0024899697405820127 0.001280812178185214 -0.00013721371760134596
1500000000.0 0.0012768877392259224 -0.00014621776180765586 0.9987036510063183 -0.0026688471570627185 0.9986993737710695 -0.0026677981312419456 0.0012810648418267378 -0.0001470295039742449
1600000000.0 0.0012771687554570166 -0.00015598330935952883 0.9987026899271614 -0.00284673851623487 0.9986984299470429 -0.0028456210352364388 0.001281334753600716 -0.0001568483467042931
1700000000.0 0.0012774676883210885 -0.0001657522729136285 0.998701667227645 -0.0030246237429591796 0.998697425590186 -0.003023438091738609 0.001281621878228226 -0.0001666704471974355
1800000000.0 0.0012777844979409507 -0.00017552486310776794 0.9987005829796 -0.0032025024600116432 0.9986963607675398 -0.0032012489408754425 0.0012819261781890307 -0.0001764960064065015
1900000000.0 0.0012781191420649174 -0.00018530129006176185 0.99869943725912 -0.0033803742912632143 0.9986952355501222 -0.0033790532237861076 0.0012822476137286606 -0.00018632522480341638
2000000000.0 0.0012784715760753684 -0.00019508176334768717 0.9986982301465408 -0.003558238861742592 0.998694050012917 -0.003556850582679814 0.0012825861428654205 -0.00019615830235146932
2100000000.0 0.0012788417529972444 -0.00020486649196044447 0.9986969617264253 -0.0037360957976985258 0.9986928042348538 -0.0037346406608938054 0.0012829417213977127 -0.00020599543847798991
2200000000.0 0.0012792296235057596 -0.00021465568428780747 0.998695632087546 -0.003913944726661989 0.9986914982987958 -0.003912423102950493 0.001283314302912003 -0.00021583683204669178
2300000000.0 0.0012796351359357562 -0.00022444954808154078 0.9986942413228633 -0.004091785277508202 0.9986901322915185 -0.004090197554615032 0.001283703838791143 -0.00022568268133051054
2400000000.0 0.0012800582362899537 -0.00023424829042809653 0.9986927895295098 -0.004269617080517558 0.998688706303695 -0.004267963662951936 0.0012841102782216846 -0.00023553318398459997
2500000000.0 0.001280498868250295 -0.00024405211771904428 0.9986912768087653 -0.004447439767437456 0.9986872204298753 -0.004445721076381846 0.0012845335682043048 -0.0002453885370188965
2600000000.0 0.001280956973186619 -0.0002538612356229817 0.9986897032660375 -0.004625252971542726 0.998685674768466 -0.004623469444737612 0.0012849736535613943 -0.00025524893677179264
2700000000.0 0.00128143249016756 -0.000263675849056005 0.9986880690108386 -0.004803056327695668 0.9986840694217126 -0.004801208419320416 0.00128543047694908 -0.0002651145788828618
2800000000.0 0.0012819253559712871 -0.0002734961621537075 0.9986863741567626 -0.004980849472406983 0.9986824044956752 -0.004978937652955015 0.0012859039788647199 -0.00027498565826676
2900000000.0 0.0012824355050980861 -0.0002833223782422917 0.9986846188214621 -0.005158632043894214 0.9986806801002092 -0.005156656800045204 0.0012863940976589972 -0.0002848623690863201
3000000000.0 0.0012829628697798902 -0.0002931546998106723 0.9986828031266187 -0.005336403682141854 0.9986788963489384 -0.005334365516628904 0.0012869007695453735 -0.00029474490472674404
3100000000.0 0.001283507379993408 -0.0003029933284823682 0.9986809271979237 -0.005514164028959661 0.9986770533592368 -0.005512063460431707 0.0012874239286121132 -0.000304633457769263
3200000000.0 0.0012840689634737805 -0.00031283846498734075 0.9986789911650454 -0.005691912728040984 0.9986751512522002 -0.005689750290921668 0.0012879635068339214 -0.0003145282199650983
3300000000.0 0.001284647545725006 -0.00032269030913476373 0.9986769951616052 -0.005869649425020718 0.9986731901526238 -0.005867425669362603 0.0012885194340825608 -0.00032442938221015344
3400000000.0 0.001285243050034975 -0.0003325490597854336 0.9986749393251485 -0.006047373767532374 0.9986711701889738 -0.006045089258867338 0.0012890916381402906 -0.00033433713451897884
3500000000.0 0.0012858553974891358 -0.0003424149148242429 0.9986728237971142 -0.006225085405265218 0.9986690914933626 -0.006222740724450613 0.0012896800447117491 -0.0003442516659997218
3600000000.0 0.0012864845069830617 -0.00035228807113340204 0.9986706487228059 -0.006402783990020724 0.9986669542015217 -0.006400379733080866 0.0012902845774371329 -0.0003541731648286685
3700000000.0 0.0012871302952380899 -0.00036216872456590067 0.9986684142513614 -0.006580469175768062 0.9986647584527725 -0.0065780059537324 0.0012909051579044018 -0.00036410181822590064
3800000000.0 0.0012877926768160657 -0.00037205706991811857 0.9986661205357195 -0.006758140618699434 0.9986625043899985 -0.0067556190574367845 0.0012915417056641554 -0.0003740378124298016
3900000000.0 0.0012884715641332818 -0.00038195330090414224 0.9986637677325901 -0.006935797977285172 0.9986601921596151 -0.006933218717333464 0.0012921941382435331 -0.0003839813326725082
4000000000.0 0.0012891668674772845 -0.0003918576101296447 0.9986613560024191 -0.007113440912327783 0.9986578219115412 -0.007110804608720046 0.0012928623711590853 -0.00039393256315643554
4100000000.0 0.001289878495021981 -0.0004017701890655083 0.9986588855093549 -0.007291069087015729 0.9986553937991668 -0.007288376409102567 0.001293546317932745 -0.00040389168702910675
4200000000.0 0.0012906063528436043 -0.00041169122802289565 0.9986563564212149 -0.007468682166975868 0.9986529079793214 -0.007465933798244186 0.001294245890104851 -0.0004138588863603061
4300000000.0 0.0012913503449381507 -0.0004216209161270384 0.9986537689094493 -0.00764627982032698 0.9986503646122431 -0.007643476458214515 0.0012949609972523666 -0.0004238343421172337
4400000000.0 0.0012921103732373579 -0.0004315594412929494 0.9986511231491053 -0.007823861717730677 0.9986477638615452 -0.007821004073437476 0.001295691547000977 -0.00043381823414208277
4500000000.0 0.001292886337626658 -0.0004415069901996994 0.9986484193187899 -0.0080014275324433 0.9986451058941812 -0.007998516330739424 0.0012964374450433627 -0.00044381074112836256
4600000000.0 0.0012936781359614233 -0.00045146374826685737 0.9986456576006335 -0.008178976940366116 0.9986423908804156 -0.008176012919395039 0.0012971985951542764 -0.0004538120405980614
4700000000.0 0.0012944856640863102 -0.00046142989962927 0.9986428381802505 -0.008356509620095832 0.9986396189937815 -0.008353493531176112 0.0012979748992070555 -0.0004638223088789924
4800000000.0 0.001295308815853186 -0.0004714056271134282 0.9986399612467017 -0.008534025252973303 0.9986367904110546 -0.008530957860394244 0.001298766257191048 -0.0004738417210821103
4900000000.0 0.0012961474831378543 -0.0004813911122138137 0.9986370269924542 -0.0087115235231325 0.9986339053122069 -0.008708405603950531 0.0012995725672268253 -0.00048387045108020624
5000000000.0 0.0012970015558619495 -0.0004913865350692552 0.9986340356133413 -0.008889004117548912 0.9986309638803798 -0.008885836461375165 0.0013003937255857728 -0.0004939086714843845
5100000000.0 0.0012978709220093235 -0.0005013920744395397 0.9986309873085214 -0.009066466726086365 0.9986279663018404 -0.009063250134876384 0.0013012296267064822 -0.0005039565536239334
5200000000.0 0.0012987554676475803 -0.0005114079076829874 0.9986278822804374 -0.009243911041543804 0.9986249127659468 -0.009240646329380426 0.0013020801632128215 -0.00051401426752412
5300000000.0 0.0012996550769457057 -0.0005214342107335309 0.9986247207347739 -0.00942133675970146 0.9986218034651095 -0.009418024752576581 0.00130294522593199 -0.0005240819818850883
5400000000.0 0.001300569632195812 -0.0005314711580788485 0.9986215028804151 -0.009598743579365526 0.9986186385947513 -0.009595385114958289 0.0013038247039128957 -0.0005341598640619237
5500000000.0 0.0013014990138333683 -0.0005415189227373674 0.9986182289294014 -0.009776131202413602 0.9986154183532692 -0.009772727129864918 0.0013047184844451026 -0.0005442480800426348
5600000000.0 0.0013024431004563645 -0.0005515776762381744 0.9986148990968856 -0.009953499333837419 0.9986121429419932 -0.009950050513523335 0.0013056264530782592 -0.0005543467944288149
5700000000.0 0.001303401768847551 -0.0005616475885984309 0.9986115136010878 -0.010130847681786797 0.998608812565148 -0.010127354985087121 0.0013065484936400143 -0.0005644561704158214
5800000000.0 0.00130437489399541 -0.0005717288283028318 0.9986080726632519 -0.010308175957611321 0.9986054274298098 -0.010304640266676768 0.0013074844882569492 -0.0005745763697722848
5900000000.0 0.0013053623491152777 -0.0005818215622827557 0.9986045765075987 -0.010485483875902441 0.9986019877458661 -0.010481906083418549 0.0013084343173732592 -0.0005847075528213597
6000000000.0 0.0013063640056709162 -0.0005919259558958691 0.9986010253612814 -0.01066277115453341 0.9985984937259724 -0.01065915216348286 0.0013093978597715694 -0.0005948498784214632
6100000000.0 0.0013073797333969686 -0.000602042172906878 0.9985974194543364 -0.010840037514700519 0.9985949455855119 -0.010836378238121133 0.0013103749925922742 -0.0006050035039474878
6200000000.0 0.0013084094003212275 -0.0006121703754657743 0.9985937590196399 -0.01101728268096134 0.9985913435425504 -0.011013584041703097 0.001311365591354402 -0.0006151685852718212
6300000000.0 0.001309452872785593 -0.0006223107240915008 0.9985900442928568 -0.011194506381273402 0.9985876878177948 -0.011190769311752698 0.0013123695299766724 -0.0006253452767472961
6400000000.0 0.0013105100154709429 -0.0006324633776501165 0.998586275512395 -0.011371708347032506 0.9985839786345471 -0.011367933788983856 0.0013133866807982283 -0.0006355337311879663
6500000000.0 0.0013115806914189973 -0.0006426284933373962 0.998582452919356 -0.011548888313108177 0.9985802162186618 -0.011545077217334611 0.0013144169145986847 -0.0006457340998523865
6600000000.0 0.001312664762054992 -0.0006528062266605154 0.9985785767574862 -0.011726046017881315 0.998576400798502 -0.011722199344001285 0.0013154601006215138 -0.0006559465324262548
6700000000.0 0.0013137620872118658 -0.0006629967314201492 0.9985746472731268 -0.01190318120327869 0.9985725326048914 -0.011899299919471277 0.0013165161065938691 -0.0006661711770056439
6800000000.0 0.0013148725251535924 -0.0006732001596919462 0.9985706647151652 -0.012080293614806639 0.9985686118710707 -0.012076378697556215 0.0013175847987487092 -0.000676408180079497
6900000000.0 0.001315995932598946 -0.0006834166618106377 0.9985666293349839 -0.01225738300158635 0.9985646388326525 -0.012253435435423121 0.001318666041847208 -0.0006866576865145601
7000000000.0 0.0013171321647451402 -0.0006936463863519372 0.9985625413864099 -0.012434449116385197 0.998560613727574 -0.012430469893625557 0.0013197596992008248 -0.0006969198395386714
7100000000.0 0.0013182810752929573 -0.000703889480116274 0.9985584011256632 -0.012611491715648996 0.9985565367960496 -0.012607481836133617 0.001320865632693246 -0.0007071947807253253
7200000000.0 0.0013194425164704227 -0.000714146088113134 0.998554208811307 -0.012788510559534167 0.9985524082805246 -0.012784471030363303 0.0013219837028028549 -0.0007174826499784733
7300000000.0 0.0013206163390575 -0.0007244163535444305 0.9985499647041939 -0.012965505411935878 0.9985482284256294 -0.012961437247205923 0.0013231137686259672 -0.0007277835855174083
7400000000.0 0.0013218023924109026 -0.0007347004177897749 0.9985456690674157 -0.013142476040519258 0.9985439974781295 -0.013138380261054131 0.0013242556878995777 -0.0007380977238618027
7500000000.0 0.0013230005244889455 -0.0007449984203910221 0.9985413221662491 -0.01331942221674744 0.9985397156868797 -0.013315299849831702 0.0013254093170237688 -0.0007484251998185627
7600000000.0 0.0013242105818772017 -0.0007553104990371385 0.9985369242681041 -0.013496343715909034 0.9985353833027725 -0.013492195795017805 0.001326574511084708 -0.0007587661464669811
7700000000.0 0.0013254324098133262 -0.0007656367895508279 0.9985324756424715 -0.01367324031714468 0.9985310005786944 -0.013669067881672716 0.0013277511238797785 -0.0007691206951448477
7800000000.0 0.0013266658522121668 -0.0007759774258733607 0.9985279765608671 -0.01385011180347357 0.9985265677694737 -0.013845915898463483 0.0013289390079392982 -0.0007794889754357637
7900000000.0 0.0013279107516920826 -0.0007863325400523939 0.9985234272967813 -0.014026957961818614 0.9985220851318317 -0.01402273963768736 0.0013301380145505244 -0.0007898711151563937
8000000000.0 0.0013291669495996777 -0.0007967022622273147 0.9985188281256222 -0.014203778583029767 0.9985175529243351 -0.014199538895295186 0.0013313479937816402 -0.0008002672403432362
8100000000.0 0.0013304342860374005 -0.0008070867206174131 0.9985141793246635 -0.014380573461908477 0.9985129714073443 -0.014376313470912491 0.0013325687945058167 -0.0008106774752406484
8200000000.0 0.0013317125998877767 -0.0008174860415087172 0.9985094811729892 -0.014557342397229028 0.9985083408429655 -0.014553063167863659 0.0013338002644246456 -0.0008211019422896315
8300000000.0 0.0013330017288402036 -0.0008279003492422975 0.9985047339514397 -0.014734085191761052 0.9985036614949994 -0.014729787793190462 0.0013350422500925828 -0.0008315407621150621
8400000000.0 0.0013343015094172482 -0.0008383297662029508 0.9984999379425559 -0.014910801652289536 0.9984989336288919 -0.014906487157672354 0.0013362945969421858 -0.0008419940535152209
8500000000.0 0.0013356117770011694 -0.0008487744128067678 0.9984950934305246 -0.01508749158963565 0.9984941575116836 -0.015083161075847118 0.0013375571493057336 -0.0008524619334513394
8600000000.0 0.0013369323658600936 -0.0008592344074912214 0.9984902007011243 -0.015264154818673936 0.9984893334119578 -0.015259809366027355 0.0013388297504429263 -0.0008629445170364172
8700000000.0 0.0013382631091750123 -0.0008697098667040443 0.9984852600416686 -0.015440791158352346 0.9984844615997926 -0.015436431850318604 0.0013401122425639408 -0.000873441917524816
8800000000.0 0.0013396038390653688 -0.0008802009048934909 0.9984802717409511 -0.01561740043170733 0.9984795423467081 -0.01561302835463736 0.001341404466853383 -0.0008839542463038883
8900000000.0 0.0013409543866171117 -0.0008907076344986715 0.9984752360891909 -0.015793982465882185 0.9984745759256157 -0.01578959870872537 0.0013427062634965628 -0.0008944816128832477
9000000000.0 0.0013423145819093966 -0.0009012301659385593 0.9984701533779747 -0.01597053709214073 0.998469562610767 -0.015966142746164792 0.0013440174717032525 -0.0009050241248857161
9100000000.0 0.0013436842540402727 -0.0009117686076058201 0.9984650239002021 -0.01614706414588298 0.9984645026777033 -0.0161426603043944 0.0013453379297328932 -0.0009155818880401857
9200000000.0 0.0013450632311553562 -0.0009223230658554488 0.9984598479500304 -0.01632356346665746 0.9984593964032029 -0.016319151224720666 0.0013466674749198742 -0.0009261550061702722
9300000000.0 0.0013464513404732 -0.000932893644998374 0.9984546258228173 -0.016500034898175177 0.9984542440652312 -0.016495615352332522 0.0013480059436973713 -0.0009367435811900954
9400000000.0 0.0013478484083142592 -0.0009434804472926139 0.9984493578150654 -0.01667647828832169 0.9984490459428891 -0.016672052536310947 0.0013493531716247374 -0.0009473477130936333
9500000000.0 0.0013492542601262754 -0.0009540835729363994 0.9984440442243666 -0.01685289348916542 0.9984438023163601 -0.016848462629642773 0.00135070899341059 -0.0009579674999476992
9600000000.0 0.0013506687205125131 -0.0009647031200609182 0.9984386853493448 -0.017029280356971363 0.99843851346686 -0.017024845489229307 0.0013520732429380205 -0.000968603037887605
9700000000.0 0.001352091613258854 -0.0009753391847231452 0.9984332814896002 -0.017205638752206657 0.9984331796765845 -0.01720120097589589 0.0013534457532916762 -0.0009792544211072506
9800000000.0 0.0013535227613611506 -0.0009859918609000076 0.9984278329456525 -0.01738196853955254 0.998427801228659 -0.017377528954400142 0.001354826356781022 -0.0009899217418550287
9900000000.0 0.0013549619870519636 -0.000996661240483256 0.9984223400188881 -0.017558269587908865 0.9984223784070861 -0.01755382929344177 0.001356214884967292 -0.0010006050904269013
10000000000.0 0.0013564091118291202 -0.001007347413272249 0.9984168030114976 -0.017734541770400552 0.9984169114966917 -0.0177301018656676 0.0013576111686871984 -0.0010113045551617867
10100000000.0 0.001357863956481397 -0.0010180504669701385 0.9984112222264258 -0.017910784964386233 0.9984114007830781 -0.01790634654767751 0.0013590150380797105 -0.0010220202224350049
10200000000.0 0.0013593263411180677 -0.00102877048717848 0.9984055979673118 -0.018086999051459676 0.998405846552569 -0.01808256322003291 0.0013604263226107362 -0.0010327521766557795
10300000000.0 0.0013607960851935142 -0.0010395075573926664 0.9983999305384343 -0.018263183917455572 0.9984002490921583 -0.018258751767257993 0.001361844851098681 -0.0010435005002596381
10400000000.0 0.0013622730075374136 -0.0010502617589991422 0.9983942202446561 -0.018439339452451298 0.9983946086894597 -0.018434912077845027 0.0013632704517394416 -0.0010542652737067276
10500000000.0 0.0013637569263800584 -0.0010610331712706908 0.9983884673913672 -0.01861546555077068 0.9983889256326554 -0.01861104404425831 0.0013647029521325043 -0.0010650465754776996
10600000000.0 0.0013652476593808513 -0.0010718218713627983 0.9983826722844293 -0.018791562110983595 0.9983832002104417 -0.018787147562934172 0.0013661421793063015 -0.0010758444820692715
10700000000.0 0.0013667450236548129 -0.0010826279343126215 0.9983768352301204 -0.01896762903590782 0.9983774327119824 -0.01896322253428549 0.001367587959741829 -0.001086659067992279
