#   Hz   S  RI   R   50
!
0.0 0.0015476186810332733 0.0 0.9984506060470474 0.0 0.9984508336755876 0.0 0.0015475790429815197 0.0
100000000.0 0.0015476330475776843 -8.811987660141955e-06 0.9984505588273035 -0.00022052198388407228 0.9984507864521835 -0.0002205223183010795 0.001547593406736818 -8.8122069630789e-06
200000000.0 0.0015476761451498804 -1.762431428764485e-05 0.9984504171717925 -0.00044104336945838013 0.9984506447856909 -0.00044104403819653266 0.0015476364959433498 -1.7624752799596253e-05
300000000.0 0.0015477479675717817 -2.6437318795368445e-05 0.9984501810916688 -0.00066156355852664 0.998450408687268 -0.0006615645613942192 0.0015477083044240173 -2.6437976328520893e-05
400000000.0 0.0015478485045447468 -3.525133998722214e-05 0.9984498506055227 -0.0008820819531194916 0.9984500781755085 -0.0008820832898290102 0.0015478088218847587 -3.5252216259910804e-05
500000000.0 0.001547977741655021 -4.4066716503698496e-05 0.9984494257393747 -0.0011025979556078581 0.9984496532764386 -0.0011025996257760778 0.0015479380339166917 -4.4067811140466484e-05
600000000.0 0.00154813566037627 -5.288378676742283e-05 0.9984489065266683 -0.0013231109688162748 0.9984491340235085 -0.0013231129719643569 0.0015480959219992653 -5.288509929914325e-05
700000000.0 0.001548322238070921 -6.170288892890326e-05 0.9984482930082628 -0.0015436203961359902 0.9984485204575865 -0.001543622731689601 0.0015482824635038145 -6.170441879283524e-05
800000000.0 0.0015485374479971773 -7.052436081213206e-05 0.9984475852324232 -0.0017641256416380691 0.998447812626948 -0.0017641283089275073 0.0015484976316972746 -7.052610735212519e-05
900000000.0 0.0015487812593139936 -7.934853986041131e-05 0.9984467832548091 -0.0019846261101861083 0.9984470105872647 -0.0019846291084464787 0.0015487413957496162 -7.935050232704092e-05
1000000000.0 0.0015490536370857393 -8.817576308229154e-05 0.9984458871384618 -0.002205121207548883 0.9984461144015905 -0.0022051245359203863 0.001549013720737662 -8.817794063300693e-05
1100000000.0 0.001549354542290226 -9.70063669975058e-05 0.9984448969537888 -0.002425610340512669 0.9984451241403481 -0.0024256139980407014 0.0015493145676527594 -9.700875869685109e-05
1200000000.0 0.001549683931827058 -0.00010584068758308638 0.9984438127785463 -0.002646092916993417 0.9984440398813113 -0.0026460969026288472 0.0015496438934095213 -0.00010584329240299209
1300000000.0 0.0015500417585252095 -0.00011467906021961359 0.9984426346978228 -0.002866568346148375 0.9984428617095851 -0.0028665726587478076 0.0015500016508532776 -0.00011468187703953138
1400000000.0 0.0015504279711521679 -0.0001235218196376729 0.9984413628040163 -0.003087036038487529 0.9984415897175883 -0.0030870406768137193 0.001550387788769751 -0.00012352484724497176
1500000000.0 0.001550842514425034 -0.0001323692998643831 0.9984399971968142 -0.003307495405984779 0.9984402240050291 -0.0033075003687067844 0.0015508022518955342 -0.00013237253695444633
1600000000.0 0.0015512853290218496 -0.00014122183416991781 0.998438537983169 -0.00352794586218838 0.9984387646788833 -0.0035279511478819524 0.0015512449809288653 -0.00014122527934676388
1700000000.0 0.0015517563515912785 -0.00015007975501482088 0.9984369852772738 -0.003748386822331399 0.9984372118533678 -0.003748392429479385 0.0015517159125413673 -0.0001500834067911251
1800000000.0 0.0015522555147676753 -0.00015894339399679432 0.9984353392005333 -0.0039688177034410636 0.9984355656499133 -0.0039688236304338004 0.0015522149793908504 -0.00015894725079445887
1900000000.0 0.001552782747183774 -0.00016781308179803658 0.998433599881537 -0.004189237924448493 0.9984338261971363 -0.004189244169584223 0.0015527421101337638 -0.0001678171419485894
2000000000.0 0.001553337973482518 -0.00017668914813315809 0.9984317674560274 -0.004409646906297176 0.9984319936308084 -0.00440965346778242 0.0015532972294410822 -0.00017669340987789
2100000000.0 0.0015539211143360213 -0.0001855719216963966 0.9984298420668678 -0.004630044072051091 0.9984300680938235 -0.004630050948001243 0.0015538802580113264 -0.00018557638318711996
2200000000.0 0.0015545320864578747 -0.00019446173011010336 0.9984278238640101 -0.004850428847002427 0.9984280497361652 -0.004850436035441988 0.001554491112588132 -0.00019446638940935894
2300000000.0 0.0015551708026218 -0.0002033588998728002 0.9984257130044577 -0.005070800658778522 0.99842593871487 -0.00507080815764193 0.0015551297059749245 -0.00020336375495455422
2400000000.0 0.0015558371716772057 -0.0002122637563079678 0.9984235096522281 -0.005291158937448405 0.9984237351939911 -0.0052911667445801995 0.001555795947053525 -0.00021226880505783525
2500000000.0 0.001556531098568583 -0.00022117662351267033 0.998421213978317 -0.0055115031156278355 0.9984214393445595 -0.005511511228783582 0.0015564897408015398 -0.0002211818637285784
2600000000.0 0.0015572524843539591 -0.00023009782430691487 0.9984188261606537 -0.005731832628585207 0.9984190513445427 -0.005731841045431864 0.001557210988311308 -0.00023010325369956272
2700000000.0 0.0015580012262240326 -0.00023902768018290495 0.9984163463840623 -0.00595214691434504 0.9984165713788049 -0.005952155632461685 0.0015579595868091198 -0.00023903329637651931
2800000000.0 0.001558777217522159 -0.00024796651125506304 0.9984137748402172 -0.0061724454137920435 0.9984139996390595 -0.006172454430670309 0.0015587354296756663 -0.0002479723117877614
2900000000.0 0.0015595803477667094 -0.0002569146362100442 0.9984111117275976 -0.006392727570773417 0.9984113363238291 -0.006392736883818156 0.0015595384064677352 -0.00025692061853445293
3000000000.0 0.0015604105026709514 -0.0002658723722572567 0.9984083572514408 -0.006612992832200901 0.9984085816383936 -0.006613002438731215 0.0015603684029389937 -0.0002658785337411236
3100000000.0 0.0015612675641675164 -0.00027484003507965494 0.9984055116236946 -0.006833240648152133 0.9984057357947476 -0.006833250545401425 0.0015612253010621733 -0.00027484637300664877
3200000000.0 0.0015621514104298382 -0.0002838179387850445 0.9984025750629669 -0.007053470471970419 0.9984027990115433 -0.007053480657087684 0.0015621089790534678 -0.0002838244503552458
3300000000.0 0.0015630619158968693 -0.00029280639585756965 0.9983995477944752 -0.007273681760364438 0.9983997715140466 -0.007273692230414565 0.0015630193113960584 -0.0002928130781879995
3400000000.0 0.0015639989512991046 -0.00030180571710935203 0.9983964300499922 -0.007493873973506432 0.9983966535340797 -0.0074938847254713776 0.001563956168864195 -0.000301812567235176
3500000000.0 0.0015649623836803293 -0.0003108162116339645 0.9983932220677925 -0.00771404657513016 0.9983934453099671 -0.007714057605909447 0.001564919418548262 -0.00031082322650863943
3600000000.0 0.0015659520764264405 -0.00031983818675799993 0.9983899240925972 -0.007934199032626474 0.9983901470864824 -0.007934210339037875 0.0015659089238819518 -0.0003198453632542636
3700000000.0 0.001566967889292533 -0.00032887194799495527 0.9983865363755164 -0.008154330817140109 0.9983867591147886 -0.00815434239592049 0.0015669245446681098 -0.0003288792829056591
3800000000.0 0.0015680096784276066 -0.0003379177989988013 0.99838305917399 -0.008374441403662896 0.9983832816523798 -0.008374453251469665 0.0015679661371059933 -0.0003379252890377303
3900000000.0 0.0015690772964052095 -0.00034697604151792997 0.9983794927517281 -0.008594530271128572 0.9983797149630219 -0.008594542384539765 0.001569033553820348 -0.00034698368332014063
4000000000.0 0.0015701705922503038 -0.0003560469753500339 0.9983758373786494 -0.008814596902504234 0.9983760593166918 -0.008814609278019334 0.00157012664388839 -0.00035605476547302374
4100000000.0 0.0015712894114706158 -0.000365130898296646 0.998372093330819 -0.00903464078488204 0.9983723149895106 -0.009034653418923922 0.0015712452528702952 -0.0003651388332213707
4200000000.0 0.0015724335960837276 -0.0003742281061193673 0.9983682608903828 -0.009254661409569494 0.9983684822636864 -0.009254674298483773 0.001572389222839199 -0.00037423618225061246
4300000000.0 0.0015736029846512877 -0.00038333889249491456 0.9983643403455038 -0.009474658272178218 0.9983645614274412 -0.009474671412235656 0.0015735583924114183 -0.0003833471061625987
4400000000.0 0.0015747974123064086 -0.0003924635489727911 0.9983603319902936 -0.009694630872712754 0.9983605527749492 -0.009694644260109277 0.0015747525967777232 -0.00039247189643245537
4500000000.0 0.0015760167107889773 -0.000401602364931062 0.9983562361247452 -0.00991457871565636 0.9983564566062675 -0.009914592346514432 0.0015759716677354672 -0.00040161084236499796
4600000000.0 0.0015772607084757662 -0.0004107556275348013 0.9983520530546633 -0.01013450131005712 0.9983522732272642 -0.010134515180426523 0.0015772154337204442 -0.00041076423105289436
4700000000.0 0.0015785292304145585 -0.0004199236216937073 0.9983477830915947 -0.01035439816961236 0.9983480029495521 -0.010354412275471096 0.0015784837198412251 -0.0004199323473343756
4800000000.0 0.0015798220983582673 -0.0004291066300206739 0.9983434265527541 -0.010574268812751647 0.9983436460904129 -0.010574283150007937 0.0015797763479104888 -0.0004291154737520198
4900000000.0 0.0015811391307976454 -0.00043830493279107126 0.9983389837609536 -0.010794112762718746 0.9983392029727262 -0.010794127327210298 0.0015810931364824785 -0.0004383138905115993
5000000000.0 0.0015824801429969325 -0.0004475188079026591 0.9983344550445261 -0.011013929547652134 0.9983346739248949 -0.011013944335148738 0.0015824339008842624 -0.0004475278754419757
5100000000.0 0.0015838449470303977 -0.0004567485308346732 0.9983298407372527 -0.011233718700664103 0.9983300592807695 -0.011233733706868086 0.0015837984532541796 -0.0004567577039552422
5200000000.0 0.0015852333518161725 -0.000465994374610334 0.998325141178283 -0.011453479759920143 0.9983253593795717 -0.01145349498046712 0.0015851866025761953 -0.00046600364900780745
5300000000.0 0.0015866451631535857 -0.0004752566097567362 0.9983203567120599 -0.011673212268713514 0.9983205745658159 -0.01167322769917412 0.0015865981547155635 -0.0004752659810612695
5400000000.0 0.0015880801837606727 -0.0004845355042676139 0.99831548768824 -0.011892915775541838 0.9983157051892324 -0.011892931411422917 0.0015880329124573899 -0.000484544968045069
5500000000.0 0.0015895382133117356 -0.0004938313235655421 0.9983105344616138 -0.012112589834180966 0.9983107516046859 -0.012112605670926308 0.0015894906755442406 -0.0004938408753182443
5600000000.0 0.0015910190484733 -0.0005031443304654501 0.998305497392024 -0.012332234003757688 0.9983057141720951 -0.01233225003674898 0.001590971240712731 -0.0005031539656331195
5700000000.0 0.0015925224829455244 -0.0005124747851377518 0.9983003768442849 -0.012551847848820739 0.9983005932563511 -0.012551864073379035 0.001592474401732123 -0.0005124844990993647
5800000000.0 0.0015940483074999277 -0.0005218229450734103 0.9982951731881008 -0.012771430939409885 0.9982953892272339 -0.012771447350796916 0.001593999949444935 -0.0005218327331472057
5900000000.0 0.0015955963100174532 -0.0005311890650483593 0.998289886797977 -0.01299098285112611 0.9982901024593298 -0.012990999444545102 0.0015955476718047222 -0.000531198922493745
6000000000.0 0.0015971662755310113 -0.0005405733970892966 0.9982845180531428 -0.013210503165195805 0.9982847333319459 -0.01321051993579338 0.001597117353916906 -0.0005405833191077256
6100000000.0 0.0015987579862645597 -0.0005499761904400896 0.9982790673374586 -0.01342999146853951 0.9982792822290222 -0.013430008411405996 0.001598708778078663 -0.0005499861721762017
6200000000.0 0.001600371221672942 -0.0005593976915281803 0.9982735350393339 -0.013649447353832916 0.9982737495390506 -0.013649464464004007 0.0016003217238195764 -0.0005594077280711864
6300000000.0 0.0016020057584852441 -0.0005688381439330099 0.9982679215516379 -0.013868870419571251 0.9982681356549821 -0.013868887692029474 0.0016019559679442002 -0.0005688482303171624
6400000000.0 0.001603661370745332 -0.0005782977883528514 0.9982622272716122 -0.014088260270129245 0.9982624409741409 -0.01408827769980507 0.0016036112845722239 -0.0005783079195594613
6500000000.0 0.0016053378298529618 -0.0005877768625750506 0.9982564526007821 -0.014307616515821582 0.9982566658981353 -0.014307634097594326 0.0016052874451806195 -0.0005877870335329632
6600000000.0 0.001607034904608753 -0.0005972756014442337 0.998250597944864 -0.014526938772960404 0.9982508108327678 -0.014526956501659798 0.0016069842186472773 -0.0005972858070316565
6700000000.0 0.001608752361254881 -0.0006067942368336555 0.9982446637136793 -0.014746226663910952 0.9982448761879434 -0.01474624453431873 0.001608701371292682 -0.000606804471878714
6800000000.0 0.0016104899635193117 -0.0006163329976144786 0.9982386503210597 -0.014965479817147982 0.9982388623775811 -0.014965497823998818 0.0016104386669240124 -0.0006163432568974319
6900000000.0 0.0016122474726591766 -0.000625892109629416 0.9982325581847565 -0.015184697867308201 0.9982327698195178 -0.01518471600529102 0.0016121958668782064 -0.00062590238788242
7000000000.0 0.001614024647504611 -0.0006354717956625689 0.9982263877263464 -0.015403880455242531 0.9982265989354203 -0.015403898719001542 0.001613972730066061 -0.0006354820875723216
7100000000.0 0.0016158212445032958 -0.0006450722754141518 0.9982201393711433 -0.015623027228065165 0.9982203501506874 -0.015623045612202345 0.0016157690130160095 -0.0006450825756222884
7200000000.0 0.0016176370177649682 -0.0006546937654727553 0.9982138135480957 -0.01584213783920483 0.9982140238943593 -0.01584215633827954 0.0016175844699201451 -0.0006547040685773985
7300000000.0 0.0016194717191066739 -0.0006643364792903056 0.9982074106897018 -0.016061211948448104 0.9982076205990216 -0.016061230556980364 0.0016194188526775439 -0.000664346779847267
7400000000.0 0.0016213250980973235 -0.0006740006271566895 0.9982009312319065 -0.01628024922198858 0.9982011407007102 -0.01628026793445899 0.0016212719109400407 -0.0006740109196808396
7500000000.0 0.0016231969021038056 -0.000683686416175568 0.9981943756140097 -0.01649924933246883 0.9981945846388168 -0.01649926814331985 0.0016231433921584017 -0.0006836966951421514
7600000000.0 0.0016250868763369843 -0.0006933940502404892 0.9981877442785709 -0.016718211959022757 0.9981879528559916 -0.016718230862661453 0.0016250330416272018 -0.0006934043100861597
7700000000.0 0.0016269947638969271 -0.0007031237300120137 0.9981810376713107 -0.01693713678731622 0.9981812457980465 -0.01693715577811402 0.0016269406025318533 -0.000703133965136117
7800000000.0 0.0016289203058198036 -0.0007128756528952222 0.9981742562410139 -0.01715602350958719 0.9981744639138591 -0.017156042581882854 0.0016288658159934709 -0.0007128858576616593
7900000000.0 0.0016308632411248748 -0.0007226500130190706 0.9981674004394321 -0.017374871824681653 0.998167607655275 -0.01737489097278131 0.0016308084211170866 -0.0007226601817569469
8000000000.0 0.0016328233068607526 -0.0007324470012139428 0.9981604707211879 -0.017593681438090522 0.9981606774770095 -0.017593700656269876 0.0016327681550371944 -0.0007324571282195782
8100000000.0 0.0016348002381516462 -0.0007422668049932212 0.9981534675436733 -0.017812452061983376 0.9981536738365488 -0.017812471344489076 0.0016347447529652288 -0.0007422768845307078
8200000000.0 0.001636793768246885 -0.000752109608532676 0.9981463913669534 -0.01803118341524169 0.9981465971940525 -0.01803120275629174 0.0016367379482376313 -0.0007521196348353772
8300000000.0 0.0016388036285662397 -0.0007619755926519114 0.9981392426536676 -0.01824987522348756 0.9981394480122545 -0.018249894617274696 0.001638747472361075 -0.0007619855599246391
8400000000.0 0.0016408295487485445 -0.0007718649347972837 0.99813202186893 -0.018468527219115946 0.998132226756364 -0.018468546659806954 0.0016407730550627847 -0.0007718748372164069
8500000000.0 0.0016428712566989158 -0.0007817778090234046 0.9981247294802275 -0.018687139141320825 0.9981249338939653 -0.018687158623059003 0.0016428144243365353 -0.0007817876407388273
8600000000.0 0.0016449284786373465 -0.0007917143859777312 0.9981173659573258 -0.018905710736120948 0.9981175698949184 -0.018905730253027723 0.0016448713064904808 -0.000791724141114548
8700000000.0 0.0016470009391467415 -0.0008016748328832944 0.9981099317721636 -0.0191242417563842 0.9981101352312591 -0.019124261302560626 0.0016469434261964563 -0.0008016845055426247
8800000000.0 0.0016490883612201583 -0.0008116593135254112 0.9981024273987567 -0.019342731961852183 0.9981026303770993 -0.01934275153137911 0.001649030506537421 -0.0008116688977859219
8900000000.0 0.0016511904663104857 -0.0008216679882359776 0.9980948533130957 -0.019561181119157785 0.9980950558085272 -0.019561200706099215 0.0016511322690553596 -0.0008216774781552669
9000000000.0 0.001653306974378232 -0.0008317010138799672 0.9980872099930462 -0.01977958900184836 0.9980874120035049 -0.01977960860025157 0.0016532484338010168 -0.0008317104034960732
9100000000.0 0.0016554376039406681 -0.0008417585438430964 0.998079497918249 -0.019997955390401348 0.9980796994417717 -0.01999797499429803 0.0016553787193815245 -0.0008417678271753798
9200000000.0 0.0016575820721192564 -0.0008518407280190603 0.9980717175700193 -0.020216280072240713 0.9980719186047389 -0.020216299675649824 0.0016575228430091512 -0.0008518498990702484
9300000000.0 0.0016597400946897916 -0.0008619477127983047 0.9980638694312451 -0.02043456284175236 0.9980640699753943 -0.020434582438680272 0.0016596805205500284 -0.0008619567655553935
9400000000.0 0.0016619113861305736 -0.0008720796410570398 0.9980559539862893 -0.020652803500295476 0.9980561540381977 -0.02065282308473873 0.00166185146657344 -0.0008720885694927719
9500000000.0 0.0016640956596716498 -0.0008822366521470618 0.9980479717208864 -0.020871001856216063 0.9980481712789818 -0.02087102142216139 0.0016640353943994284 -0.0008822454502217591
9600000000.0 0.0016662926273422007 -0.0008924188818875352 0.998039923122044 -0.021089157724854514 0.9980401221848526 -0.02108917726628102 0.001666232016149512 -0.0008924275435489728
9700000000.0 0.001668502000021731 -0.0009026264625540432 0.9980318086779407 -0.021307270928555104 0.9980320072440875 -0.021307290439435675 0.0016684410427938552 -0.0009026349817412312
9800000000.0 0.0016707234874881217 -0.0009128595228732537 0.9980236288778289 -0.021525341296671847 0.9980238269460369 -0.02152536077097451 0.0016706621842014155 -0.0009128678935156739
9900000000.0 0.0016729567984653715 -0.0009231181880141087 0.9980153842119303 -0.021743368665573075 0.9980155817810218 -0.021743388097262468 0.0016728951491882013 -0.0009231264040346494
10000000000.0 0.0016752016406746664 -0.0009334025795818553 0.9980070751713398 -0.021961352878644792 0.9980072722402346 -0.02196137226168449 0.001675139645566489 -0.0009334106348965925
10100000000.0 0.0016774577208816465 -0.0009437128156123307 0.9979987022479235 -0.02217929378629393 0.9979988988156403 -0.022179313114645844 0.0016773953801934424 -0.0009437207041332817
10200000000.0 0.0016797247449464546 -0.0009540490105666529 0.997990265934219 -0.0223971912459455 0.997990461999876 -0.022397210513572935 0.0016796620590207782 -0.0009540567262025393
10300000000.0 0.0016820024178713843 -0.000964411275326549 0.997981766723338 -0.02261504512204342 0.9979819622861504 -0.02261506432291223 0.0016819393871425525 -0.0009644188119844808
10400000000.0 0.0016842904438513645 -0.0009747997171917136 0.9979732051088643 -0.022832855286046533 0.997973400168147 -0.02283287441412632 0.00168422706884473 -0.0009748070687782614
10500000000.0 0.0016865885263211988 -0.0009852144398761152 0.9979645815847576 -0.02305062161642411 0.9979647761399224 -0.023050640665689695 0.0016865248076536599 -0.0009852216002989905
10600000000.0 0.0016888963680050662 -0.0009956555435058595 0.9979558966452523 -0.02326834399864952 0.9979560906958109 -0.023268362963082656 0.0016888323063852448 -0.0009956625066744008
10700000000.0 0.0016912136709646888 -0.0010061231246172623 0.9979471507847609 -0.02348602232519258 0.9979473443303226 -0.023486041198783357 0.001691149267192179 -0.0010061298844455315
