#   Hz   S  RI   R   50
!
0.000000e+00 2.587412e-03 0.000000e+00 9.974716e-01 0.000000e+00 9.974744e-01 0.000000e+00 2.578174e-03 0.000000e+00
1.000000e+08 2.587465e-03 -3.637707e-06 9.974714e-01 -4.275119e-04 9.974743e-01 -4.275143e-04 2.578229e-03 -3.657256e-06
2.000000e+08 2.587623e-03 -7.276807e-06 9.974709e-01 -8.550216e-04 9.974738e-01 -8.550265e-04 2.578393e-03 -7.315910e-06
3.000000e+08 2.587887e-03 -1.091869e-05 9.974701e-01 -1.282527e-03 9.974729e-01 -1.282534e-03 2.578666e-03 -1.097736e-05
4.000000e+08 2.588256e-03 -1.456476e-05 9.974690e-01 -1.710026e-03 9.974718e-01 -1.710036e-03 2.579048e-03 -1.464299e-05
5.000000e+08 2.588730e-03 -1.821639e-05 9.974675e-01 -2.137516e-03 9.974703e-01 -2.137528e-03 2.579540e-03 -1.831422e-05
6.000000e+08 2.589310e-03 -2.187498e-05 9.974657e-01 -2.564996e-03 9.974685e-01 -2.565010e-03 2.580140e-03 -2.199242e-05
7.000000e+08 2.589995e-03 -2.554193e-05 9.974635e-01 -2.992462e-03 9.974663e-01 -2.992479e-03 2.580849e-03 -2.567899e-05
8.000000e+08 2.590785e-03 -2.921860e-05 9.974611e-01 -3.419913e-03 9.974639e-01 -3.419933e-03 2.581667e-03 -2.937533e-05
9.000000e+08 2.591680e-03 -3.290640e-05 9.974583e-01 -3.847347e-03 9.974611e-01 -3.847369e-03 2.582594e-03 -3.308281e-05
1.000000e+09 2.592679e-03 -3.660670e-05 9.974551e-01 -4.274762e-03 9.974579e-01 -4.274786e-03 2.583629e-03 -3.680284e-05
1.100000e+09 2.593783e-03 -4.032089e-05 9.974517e-01 -4.702155e-03 9.974545e-01 -4.702181e-03 2.584773e-03 -4.053679e-05
1.200000e+09 2.594992e-03 -4.405033e-05 9.974479e-01 -5.129524e-03 9.974507e-01 -5.129553e-03 2.586025e-03 -4.428604e-05
1.300000e+09 2.596304e-03 -4.779641e-05 9.974438e-01 -5.556868e-03 9.974466e-01 -5.556898e-03 2.587384e-03 -4.805197e-05
1.400000e+09 2.597721e-03 -5.156049e-05 9.974394e-01 -5.984183e-03 9.974422e-01 -5.984216e-03 2.588851e-03 -5.183595e-05
1.500000e+09 2.599241e-03 -5.534395e-05 9.974346e-01 -6.411468e-03 9.974374e-01 -6.411504e-03 2.590426e-03 -5.563937e-05
1.600000e+09 2.600864e-03 -5.914813e-05 9.974295e-01 -6.838722e-03 9.974323e-01 -6.838759e-03 2.592107e-03 -5.946357e-05
1.700000e+09 2.602591e-03 -6.297441e-05 9.974241e-01 -7.265940e-03 9.974269e-01 -7.265980e-03 2.593896e-03 -6.330992e-05
1.800000e+09 2.604420e-03 -6.682414e-05 9.974184e-01 -7.693123e-03 9.974211e-01 -7.693165e-03 2.595791e-03 -6.717979e-05
1.900000e+09 2.606352e-03 -7.069866e-05 9.974123e-01 -8.120267e-03 9.974151e-01 -8.120311e-03 2.597792e-03 -7.107452e-05
2.000000e+09 2.608386e-03 -7.459931e-05 9.974059e-01 -8.547370e-03 9.974087e-01 -8.547417e-03 2.599899e-03 -7.499546e-05
2.100000e+09 2.610521e-03 -7.852744e-05 9.973992e-01 -8.974431e-03 9.974020e-01 -8.974479e-03 2.602111e-03 -7.894395e-05
2.200000e+09 2.612758e-03 -8.248438e-05 9.973922e-01 -9.401447e-03 9.973949e-01 -9.401498e-03 2.604428e-03 -8.292134e-05
2.300000e+09 2.615095e-03 -8.647146e-05 9.973848e-01 -9.828416e-03 9.973876e-01 -9.828469e-03 2.606850e-03 -8.692894e-05
2.400000e+09 2.617534e-03 -9.048998e-05 9.973772e-01 -1.025534e-02 9.973799e-01 -1.025539e-02 2.609377e-03 -9.096808e-05
2.500000e+09 2.620072e-03 -9.454128e-05 9.973692e-01 -1.068221e-02 9.973719e-01 -1.068226e-02 2.612007e-03 -9.504008e-05
2.600000e+09 2.622710e-03 -9.862665e-05 9.973609e-01 -1.110902e-02 9.973636e-01 -1.110908e-02 2.614740e-03 -9.914625e-05
2.700000e+09 2.625447e-03 -1.027474e-04 9.973522e-01 -1.153579e-02 9.973549e-01 -1.153585e-02 2.617577e-03 -1.032879e-04
2.800000e+09 2.628282e-03 -1.069048e-04 9.973433e-01 -1.196249e-02 9.973460e-01 -1.196255e-02 2.620515e-03 -1.074663e-04
2.900000e+09 2.631216e-03 -1.111002e-04 9.973340e-01 -1.238914e-02 9.973367e-01 -1.238920e-02 2.623556e-03 -1.116828e-04
3.000000e+09 2.634247e-03 -1.153347e-04 9.973244e-01 -1.281572e-02 9.973271e-01 -1.281579e-02 2.626698e-03 -1.159386e-04
3.100000e+09 2.637376e-03 -1.196098e-04 9.973145e-01 -1.324225e-02 9.973172e-01 -1.324231e-02 2.629940e-03 -1.202350e-04
3.200000e+09 2.640601e-03 -1.239267e-04 9.973043e-01 -1.366870e-02 9.973070e-01 -1.366877e-02 2.633283e-03 -1.245733e-04
3.300000e+09 2.643921e-03 -1.282865e-04 9.972938e-01 -1.409510e-02 9.972964e-01 -1.409517e-02 2.636725e-03 -1.289547e-04
3.400000e+09 2.647337e-03 -1.326906e-04 9.972829e-01 -1.452142e-02 9.972856e-01 -1.452149e-02 2.640267e-03 -1.333805e-04
3.500000e+09 2.650848e-03 -1.371402e-04 9.972718e-01 -1.494767e-02 9.972744e-01 -1.494775e-02 2.643907e-03 -1.378519e-04
3.600000e+09 2.654453e-03 -1.416365e-04 9.972603e-01 -1.537385e-02 9.972629e-01 -1.537393e-02 2.647645e-03 -1.423702e-04
3.700000e+09 2.658151e-03 -1.461807e-04 9.972485e-01 -1.579996e-02 9.972512e-01 -1.580004e-02 2.651479e-03 -1.469365e-04
3.800000e+09 2.661942e-03 -1.507740e-04 9.972365e-01 -1.622599e-02 9.972391e-01 -1.622607e-02 2.655411e-03 -1.515521e-04
3.900000e+09 2.665825e-03 -1.554177e-04 9.972241e-01 -1.665195e-02 9.972267e-01 -1.665203e-02 2.659438e-03 -1.562181e-04
4.000000e+09 2.669800e-03 -1.601128e-04 9.972114e-01 -1.707782e-02 9.972140e-01 -1.707790e-02 2.663560e-03 -1.609358e-04
4.100000e+09 2.673865e-03 -1.648607e-04 9.971984e-01 -1.750361e-02 9.972009e-01 -1.750370e-02 2.667777e-03 -1.657063e-04
4.200000e+09 2.678020e-03 -1.696624e-04 9.971851e-01 -1.792932e-02 9.971876e-01 -1.792941e-02 2.672087e-03 -1.705308e-04
4.300000e+09 2.682265e-03 -1.745190e-04 9.971715e-01 -1.835495e-02 9.971740e-01 -1.835503e-02 2.676491e-03 -1.754105e-04
4.400000e+09 2.686598e-03 -1.794318e-04 9.971575e-01 -1.878049e-02 9.971601e-01 -1.878057e-02 2.680986e-03 -1.803464e-04
4.500000e+09 2.691018e-03 -1.844019e-04 9.971433e-01 -1.920594e-02 9.971459e-01 -1.920602e-02 2.685573e-03 -1.853398e-04
4.600000e+09 2.695526e-03 -1.894304e-04 9.971288e-01 -1.963130e-02 9.971313e-01 -1.963139e-02 2.690250e-03 -1.903918e-04
4.700000e+09 2.700120e-03 -1.945183e-04 9.971140e-01 -2.005657e-02 9.971165e-01 -2.005666e-02 2.695018e-03 -1.955034e-04
4.800000e+09 2.704799e-03 -1.996669e-04 9.970989e-01 -2.048174e-02 9.971014e-01 -2.048183e-02 2.699874e-03 -2.006757e-04
4.900000e+09 2.709562e-03 -2.048770e-04 9.970835e-01 -2.090683e-02 9.970860e-01 -2.090692e-02 2.704819e-03 -2.059099e-04
5.000000e+09 2.714409e-03 -2.101500e-04 9.970678e-01 -2.133181e-02 9.970703e-01 -2.133190e-02 2.709851e-03 -2.112070e-04
5.100000e+09 2.719339e-03 -2.154867e-04 9.970518e-01 -2.175670e-02 9.970543e-01 -2.175679e-02 2.714969e-03 -2.165681e-04
5.200000e+09 2.724351e-03 -2.208882e-04 9.970356e-01 -2.218149e-02 9.970380e-01 -2.218158e-02 2.720173e-03 -2.219942e-04
5.300000e+09 2.729444e-03 -2.263556e-04 9.970190e-01 -2.260617e-02 9.970214e-01 -2.260627e-02 2.725462e-03 -2.274863e-04
5.400000e+09 2.734618e-03 -2.318899e-04 9.970021e-01 -2.303076e-02 9.970045e-01 -2.303085e-02 2.730834e-03 -2.330455e-04
5.500000e+09 2.739870e-03 -2.374921e-04 9.969850e-01 -2.345524e-02 9.969874e-01 -2.345533e-02 2.736290e-03 -2.386728e-04
5.600000e+09 2.745201e-03 -2.431631e-04 9.969676e-01 -2.387961e-02 9.969699e-01 -2.387971e-02 2.741828e-03 -2.443692e-04
5.700000e+09 2.750609e-03 -2.489040e-04 9.969498e-01 -2.430388e-02 9.969522e-01 -2.430398e-02 2.747446e-03 -2.501356e-04
5.800000e+09 2.756094e-03 -2.547157e-04 9.969319e-01 -2.472804e-02 9.969342e-01 -2.472814e-02 2.753145e-03 -2.559730e-04
5.900000e+09 2.761654e-03 -2.605992e-04 9.969136e-01 -2.515209e-02 9.969159e-01 -2.515219e-02 2.758923e-03 -2.618825e-04
6.000000e+09 2.767289e-03 -2.665553e-04 9.968950e-01 -2.557603e-02 9.968973e-01 -2.557613e-02 2.764779e-03 -2.678648e-04
6.100000e+09 2.772997e-03 -2.725851e-04 9.968762e-01 -2.599986e-02 9.968785e-01 -2.599995e-02 2.770713e-03 -2.739209e-04
6.200000e+09 2.778778e-03 -2.786894e-04 9.968571e-01 -2.642357e-02 9.968593e-01 -2.642367e-02 2.776722e-03 -2.800518e-04
6.300000e+09 2.784631e-03 -2.848691e-04 9.968377e-01 -2.684717e-02 9.968399e-01 -2.684727e-02 2.782807e-03 -2.862583e-04
6.400000e+09 2.790554e-03 -2.911251e-04 9.968180e-01 -2.727066e-02 9.968203e-01 -2.727075e-02 2.788966e-03 -2.925414e-04
6.500000e+09 2.796546e-03 -2.974583e-04 9.967981e-01 -2.769402e-02 9.968003e-01 -2.769411e-02 2.795199e-03 -2.989018e-04
6.600000e+09 2.802607e-03 -3.038694e-04 9.967779e-01 -2.811727e-02 9.967801e-01 -2.811736e-02 2.801503e-03 -3.053404e-04
6.700000e+09 2.808736e-03 -3.103594e-04 9.967574e-01 -2.854040e-02 9.967596e-01 -2.854049e-02 2.807879e-03 -3.118581e-04
6.800000e+09 2.814931e-03 -3.169290e-04 9.967367e-01 -2.896340e-02 9.967389e-01 -2.896349e-02 2.814325e-03 -3.184557e-04
6.900000e+09 2.821192e-03 -3.235791e-04 9.967157e-01 -2.938629e-02 9.967178e-01 -2.938638e-02 2.820839e-03 -3.251340e-04
7.000000e+09 2.827516e-03 -3.303103e-04 9.966944e-01 -2.980905e-02 9.966966e-01 -2.980914e-02 2.827422e-03 -3.318937e-04
7.100000e+09 2.833904e-03 -3.371236e-04 9.966729e-01 -3.023169e-02 9.966750e-01 -3.023177e-02 2.834071e-03 -3.387356e-04
7.200000e+09 2.840355e-03 -3.440196e-04 9.966511e-01 -3.065420e-02 9.966532e-01 -3.065429e-02 2.840787e-03 -3.456606e-04
7.300000e+09 2.846866e-03 -3.509991e-04 9.966291e-01 -3.107658e-02 9.966311e-01 -3.107667e-02 2.847566e-03 -3.526693e-04
7.400000e+09 2.853437e-03 -3.580628e-04 9.966068e-01 -3.149884e-02 9.966088e-01 -3.149893e-02 2.854410e-03 -3.597624e-04
7.500000e+09 2.860067e-03 -3.652114e-04 9.965843e-01 -3.192097e-02 9.965863e-01 -3.192106e-02 2.861316e-03 -3.669407e-04
7.600000e+09 2.866754e-03 -3.724456e-04 9.965614e-01 -3.234297e-02 9.965634e-01 -3.234306e-02 2.868283e-03 -3.742048e-04
7.700000e+09 2.873499e-03 -3.797661e-04 9.965384e-01 -3.276485e-02 9.965404e-01 -3.276493e-02 2.875310e-03 -3.815555e-04
7.800000e+09 2.880298e-03 -3.871735e-04 9.965151e-01 -3.318659e-02 9.965170e-01 -3.318667e-02 2.882397e-03 -3.889934e-04
7.900000e+09 2.887152e-03 -3.946684e-04 9.964915e-01 -3.360820e-02 9.964935e-01 -3.360828e-02 2.889541e-03 -3.965191e-04
8.000000e+09 2.894059e-03 -4.022516e-04 9.964677e-01 -3.402967e-02 9.964696e-01 -3.402975e-02 2.896742e-03 -4.041333e-04
8.100000e+09 2.901019e-03 -4.099235e-04 9.964437e-01 -3.445102e-02 9.964456e-01 -3.445109e-02 2.903999e-03 -4.118365e-04
8.200000e+09 2.908029e-03 -4.176848e-04 9.964194e-01 -3.487223e-02 9.964213e-01 -3.487230e-02 2.911310e-03 -4.196294e-04
8.300000e+09 2.915088e-03 -4.255361e-04 9.963949e-01 -3.529330e-02 9.963967e-01 -3.529337e-02 2.918675e-03 -4.275125e-04
8.400000e+09 2.922196e-03 -4.334779e-04 9.963701e-01 -3.571424e-02 9.963719e-01 -3.571431e-02 2.926091e-03 -4.354863e-04
8.500000e+09 2.929352e-03 -4.415107e-04 9.963451e-01 -3.613504e-02 9.963469e-01 -3.613511e-02 2.933558e-03 -4.435516e-04
8.600000e+09 2.936553e-03 -4.496351e-04 9.963199e-01 -3.655571e-02 9.963216e-01 -3.655577e-02 2.941075e-03 -4.517087e-04
8.700000e+09 2.943800e-03 -4.578516e-04 9.962944e-01 -3.697624e-02 9.962962e-01 -3.697630e-02 2.948641e-03 -4.599581e-04
8.800000e+09 2.951090e-03 -4.661606e-04 9.962687e-01 -3.739663e-02 9.962704e-01 -3.739669e-02 2.956254e-03 -4.683004e-04
8.900000e+09 2.958423e-03 -4.745627e-04 9.962428e-01 -3.781688e-02 9.962445e-01 -3.781694e-02 2.963913e-03 -4.767360e-04
9.000000e+09 2.965797e-03 -4.830583e-04 9.962166e-01 -3.823699e-02 9.962183e-01 -3.823705e-02 2.971617e-03 -4.852654e-04
9.100000e+09 2.973212e-03 -4.916477e-04 9.961903e-01 -3.865697e-02 9.961919e-01 -3.865702e-02 2.979364e-03 -4.938891e-04
9.200000e+09 2.980665e-03 -5.003316e-04 9.961637e-01 -3.907680e-02 9.961653e-01 -3.907685e-02 2.987155e-03 -5.026073e-04
9.300000e+09 2.988156e-03 -5.091102e-04 9.961368e-01 -3.949649e-02 9.961384e-01 -3.949654e-02 2.994986e-03 -5.114207e-04
9.400000e+09 2.995683e-03 -5.179839e-04 9.961098e-01 -3.991605e-02 9.961113e-01 -3.991609e-02 3.002857e-03 -5.203294e-04
9.500000e+09 3.003246e-03 -5.269531e-04 9.960825e-01 -4.033546e-02 9.960841e-01 -4.033550e-02 3.010768e-03 -5.293340e-04
9.600000e+09 3.010843e-03 -5.360182e-04 9.960550e-01 -4.075473e-02 9.960565e-01 -4.075477e-02 3.018716e-03 -5.384348e-04
9.700000e+09 3.018473e-03 -5.451795e-04 9.960273e-01 -4.117385e-02 9.960288e-01 -4.117389e-02 3.026700e-03 -5.476320e-04
9.800000e+09 3.026134e-03 -5.544373e-04 9.959994e-01 -4.159284e-02 9.960009e-01 -4.159287e-02 3.034720e-03 -5.569261e-04
9.900000e+09 3.033826e-03 -5.637919e-04 9.959713e-01 -4.201168e-02 9.959727e-01 -4.201171e-02 3.042773e-03 -5.663173e-04
1.000000e+10 3.041547e-03 -5.732436e-04 9.959430e-01 -4.243038e-02 9.959444e-01 -4.243041e-02 3.050859e-03 -5.758059e-04
1.010000e+10 3.049296e-03 -5.827926e-04 9.959144e-01 -4.284894e-02 9.959158e-01 -4.284896e-02 3.058977e-03 -5.853922e-04
1.020000e+10 3.057072e-03 -5.924393e-04 9.958857e-01 -4.326735e-02 9.958871e-01 -4.326737e-02 3.067124e-03 -5.950764e-04
1.030000e+10 3.064873e-03 -6.021838e-04 9.958568e-01 -4.368562e-02 9.958581e-01 -4.368564e-02 3.075301e-03 -6.048587e-04
1.040000e+10 3.072698e-03 -6.120264e-04 9.958276e-01 -4.410375e-02 9.958289e-01 -4.410376e-02 3.083506e-03 -6.147395e-04
1.050000e+10 3.080546e-03 -6.219672e-04 9.957983e-01 -4.452173e-02 9.957995e-01 -4.452174e-02 3.091737e-03 -6.247188e-04
1.060000e+10 3.088417e-03 -6.320064e-04 9.957687e-01 -4.493957e-02 9.957700e-01 -4.493958e-02 3.099993e-03 -6.347969e-04
1.070000e+10 3.096307e-03 -6.421442e-04 9.957390e-01 -4.535727e-02 9.957402e-01 -4.535727e-02 3.108274e-03 -6.449740e-04
1.080000e+10 3.104217e-03 -6.523808e-04 9.957090e-01 -4.577482e-02 9.957102e-01 -4.577481e-02 3.116577e-03 -6.552501e-04
1.090000e+10 3.112146e-03 -6.627163e-04 9.956789e-01 -4.619223e-02 9.956801e-01 -4.619222e-02 3.124902e-03 -6.656254e-04
1.100000e+10 3.120091e-03 -6.731507e-04 9.956486e-01 -4.660949e-02 9.956497e-01 -4.660948e-02 3.133247e-03 -6.761000e-04
1.110000e+10 3.128051e-03 -6.836843e-04 9.956181e-01 -4.702661e-02 9.956192e-01 -4.702660e-02 3.141611e-03 -6.866741e-04
1.120000e+10 3.136026e-03 -6.943170e-04 9.955874e-01 -4.744359e-02 9.955885e-01 -4.744357e-02 3.149994e-03 -6.973477e-04
1.130000e+10 3.144014e-03 -7.050489e-04 9.955565e-01 -4.786042e-02 9.955576e-01 -4.786040e-02 3.158393e-03 -7.081209e-04
1.140000e+10 3.152015e-03 -7.158801e-04 9.955255e-01 -4.827711e-02 9.955265e-01 -4.827708e-02 3.166807e-03 -7.189937e-04
1.150000e+10 3.160026e-03 -7.268106e-04 9.954942e-01 -4.869366e-02 9.954952e-01 -4.869363e-02 3.175235e-03 -7.299661e-04
1.160000e+10 3.168046e-03 -7.378405e-04 9.954628e-01 -4.911007e-02 9.954638e-01 -4.911003e-02 3.183677e-03 -7.410382e-04
1.170000e+10 3.176075e-03 -7.489696e-04 9.954312e-01 -4.952633e-02 9.954321e-01 -4.952628e-02 3.192130e-03 -7.522100e-04
1.180000e+10 3.184111e-03 -7.601981e-04 9.953994e-01 -4.994245e-02 9.954003e-01 -4.994240e-02 3.200594e-03 -7.634815e-04
1.190000e+10 3.192152e-03 -7.715258e-04 9.953674e-01 -5.035842e-02 9.953683e-01 -5.035837e-02 3.209067e-03 -7.748526e-04
1.200000e+10 3.200199e-03 -7.829528e-04 9.953353e-01 -5.077426e-02 9.953362e-01 -5.077420e-02 3.217549e-03 -7.863232e-04
1.210000e+10 3.208249e-03 -7.944789e-04 9.953030e-01 -5.118995e-02 9.953038e-01 -5.118989e-02 3.226037e-03 -7.978934e-04
1.220000e+10 3.216301e-03 -8.061041e-04 9.952705e-01 -5.160551e-02 9.952713e-01 -5.160544e-02 3.234531e-03 -8.095630e-04
1.230000e+10 3.224354e-03 -8.178282e-04 9.952379e-01 -5.202092e-02 9.952387e-01 -5.202084e-02 3.243029e-03 -8.213319e-04
1.240000e+10 3.232407e-03 -8.296512e-04 9.952051e-01 -5.243619e-02 9.952058e-01 -5.243611e-02 3.251531e-03 -8.332001e-04
1.250000e+10 3.240459e-03 -8.415730e-04 9.951721e-01 -5.285132e-02 9.951728e-01 -5.285123e-02 3.260035e-03 -8.451674e-04
1.260000e+10 3.248509e-03 -8.535933e-04 9.951390e-01 -5.326631e-02 9.951397e-01 -5.326622e-02 3.268540e-03 -8.572336e-04
1.270000e+10 3.256554e-03 -8.657121e-04 9.951057e-01 -5.368116e-02 9.951064e-01 -5.368107e-02 3.277045e-03 -8.693987e-04
1.280000e+10 3.264595e-03 -8.779291e-04 9.950723e-01 -5.409588e-02 9.950729e-01 -5.409578e-02 3.285548e-03 -8.816623e-04
1.290000e+10 3.272630e-03 -8.902441e-04 9.950387e-01 -5.451045e-02 9.950392e-01 -5.451034e-02 3.294049e-03 -8.940244e-04
1.300000e+10 3.280658e-03 -9.026571e-04 9.950049e-01 -5.492489e-02 9.950054e-01 -5.492478e-02 3.302546e-03 -9.064847e-04
1.310000e+10 3.288677e-03 -9.151676e-04 9.949710e-01 -5.533919e-02 9.949715e-01 -5.533907e-02 3.311038e-03 -9.190431e-04
1.320000e+10 3.296687e-03 -9.277756e-04 9.949369e-01 -5.575336e-02 9.949374e-01 -5.575323e-02 3.319524e-03 -9.316992e-04
1.330000e+10 3.304687e-03 -9.404807e-04 9.949027e-01 -5.616738e-02 9.949031e-01 -5.616725e-02 3.328003e-03 -9.444529e-04
1.340000e+10 3.312674e-03 -9.532827e-04 9.948683e-01 -5.658128e-02 9.948687e-01 -5.658114e-02 3.336474e-03 -9.573038e-04
1.350000e+10 3.320649e-03 -9.661813e-04 9.948338e-01 -5.699504e-02 9.948342e-01 -5.699489e-02 3.344935e-03 -9.702518e-04
1.360000e+10 3.328610e-03 -9.791762e-04 9.947991e-01 -5.740866e-02 9.947995e-01 -5.740851e-02 3.353386e-03 -9.832964e-04
1.370000e+10 3.336556e-03 -9.922672e-04 9.947643e-01 -5.782215e-02 9.947646e-01 -5.782200e-02 3.361825e-03 -9.964375e-04
1.380000e+10 3.344485e-03 -1.005454e-03 9.947293e-01 -5.823551e-02 9.947296e-01 -5.823535e-02 3.370251e-03 -1.009675e-03
1.390000e+10 3.352397e-03 -1.018736e-03 9.946942e-01 -5.864874e-02 9.946945e-01 -5.864857e-02 3.378663e-03 -1.023008e-03
1.400000e+10 3.360291e-03 -1.032113e-03 9.946590e-01 -5.906184e-02 9.946592e-01 -5.906166e-02 3.387060e-03 -1.036436e-03
1.410000e+10 3.368166e-03 -1.045584e-03 9.946236e-01 -5.947480e-02 9.946238e-01 -5.947462e-02 3.395441e-03 -1.049959e-03
1.420000e+10 3.376019e-03 -1.059150e-03 9.945881e-01 -5.988764e-02 9.945883e-01 -5.988745e-02 3.403805e-03 -1.063577e-03
1.430000e+10 3.383851e-03 -1.072810e-03 9.945524e-01 -6.030035e-02 9.945526e-01 -6.030015e-02 3.412150e-03 -1.077289e-03
1.440000e+10 3.391661e-03 -1.086563e-03 9.945166e-01 -6.071292e-02 9.945167e-01 -6.071272e-02 3.420477e-03 -1.091096e-03
1.450000e+10 3.399446e-03 -1.100410e-03 9.944807e-01 -6.112538e-02 9.944808e-01 -6.112517e-02 3.428782e-03 -1.104995e-03
1.460000e+10 3.407207e-03 -1.114349e-03 9.944446e-01 -6.153770e-02 9.944447e-01 -6.153749e-02 3.437067e-03 -1.118988e-03
1.470000e+10 3.414942e-03 -1.128380e-03 9.944084e-01 -6.194991e-02 9.944085e-01 -6.194968e-02 3.445329e-03 -1.133073e-03
1.480000e+10 3.422650e-03 -1.142503e-03 9.943721e-01 -6.236198e-02 9.943721e-01 -6.236175e-02 3.453567e-03 -1.147251e-03
1.490000e+10 3.430330e-03 -1.156717e-03 9.943357e-01 -6.277394e-02 9.943356e-01 -6.277369e-02 3.461781e-03 -1.161520e-03
1.500000e+10 3.437981e-03 -1.171022e-03 9.942991e-01 -6.318577e-02 9.942990e-01 -6.318552e-02 3.469969e-03 -1.175881e-03
1.510000e+10 3.445602e-03 -1.185417e-03 9.942624e-01 -6.359747e-02 9.942623e-01 -6.359722e-02 3.478131e-03 -1.190332e-03
1.520000e+10 3.453193e-03 -1.199903e-03 9.942256e-01 -6.400906e-02 9.942254e-01 -6.400880e-02 3.486265e-03 -1.204873e-03
1.530000e+10 3.460751e-03 -1.214477e-03 9.941886e-01 -6.442053e-02 9.941884e-01 -6.442026e-02 3.494371e-03 -1.219504e-03
1.540000e+10 3.468277e-03 -1.229140e-03 9.941515e-01 -6.483188e-02 9.941513e-01 -6.483160e-02 3.502447e-03 -1.234225e-03
1.550000e+10 3.475769e-03 -1.243892e-03 9.941143e-01 -6.524311e-02 9.941141e-01 -6.524283e-02 3.510493e-03 -1.249034e-03
1.560000e+10 3.483226e-03 -1.258731e-03 9.940770e-01 -6.565423e-02 9.940767e-01 -6.565394e-02 3.518507e-03 -1.263931e-03
1.570000e+10 3.490647e-03 -1.273657e-03 9.940396e-01 -6.606523e-02 9.940393e-01 -6.606493e-02 3.526489e-03 -1.278916e-03
1.580000e+10 3.498032e-03 -1.288670e-03 9.940020e-01 -6.647611e-02 9.940017e-01 -6.647580e-02 3.534438e-03 -1.293987e-03
1.590000e+10 3.505379e-03 -1.303769e-03 9.939643e-01 -6.688688e-02 9.939640e-01 -6.688657e-02 3.542352e-03 -1.309146e-03
1.600000e+10 3.512687e-03 -1.318954e-03 9.939266e-01 -6.729754e-02 9.939261e-01 -6.729722e-02 3.550231e-03 -1.324390e-03
1.610000e+10 3.519956e-03 -1.334223e-03 9.938887e-01 -6.770809e-02 9.938882e-01 -6.770776e-02 3.558074e-03 -1.339719e-03
1.620000e+10 3.527185e-03 -1.349576e-03 9.938506e-01 -6.811853e-02 9.938501e-01 -6.811819e-02 3.565881e-03 -1.355133e-03
1.630000e+10 3.534373e-03 -1.365013e-03 9.938125e-01 -6.852886e-02 9.938120e-01 -6.852851e-02 3.573649e-03 -1.370631e-03
1.640000e+10 3.541519e-03 -1.380533e-03 9.937743e-01 -6.893908e-02 9.937737e-01 -6.893872e-02 3.581379e-03 -1.386213e-03
